date Mon Aug 24 11:39:27 2026
base hex  timestamps absolute
internal events logged
// PeakLive ASC recording
Begin Triggerblock Mon Aug 24 11:39:27 2026
// PeakLive connected: Connected: passive listen-only
   0.000000 1  A6              Rx   d 7 3D 06 7D 0F FE 00 20
   0.000213 1  A5              Rx   d 8 00 06 B4 AF 7D DC 00 32
   0.000469 1  2B0             Rx   d 8 01 1E 3C 0A 28 00 00 00
   0.000725 1  77              Rx   d 8 45 01 76 64 00 00 00 00
   0.000853 1  600             Rx   d 2 00 00
   0.000981 1  414             Rx   d 3 F0 06 94
   0.001237 1  202             Rx   d 8 01 00 40 21 01 8D 00 CA
   0.002475 1  350             Rx   d 8 00 60 00 10 00 80 11 E1
   0.004651 1  726             Rx   d 8 00 00 00 00 58 00 00 00
   0.004864 1  727             Rx   d 8 00 00 FA 0F 00 00 00 00
   0.005120 1  728             Rx   d 8 00 00 00 00 00 00 00 00
   0.005376 1  729             Rx   d 8 66 34 FF 0F FF 0F 00 00
   0.005589 1  655             Rx   d 8 02 00 55 56 65 45 02 00
   0.006272 1  610             Rx   d 7 9D D1 00 31 F4 FF 3B
   0.007936 1  1A1             Rx   d 8 90 85 42 B0 20 4B 01 2D
   0.009813 1  1AB             Rx   d 8 B9 26 32 31 FC EB C0 00
   0.010027 1  A6              Rx   d 7 6A 07 7D 0F FE 00 20
   0.010283 1  A5              Rx   d 8 00 07 B4 AF 7D DC 00 32
   0.010496 1  2B0             Rx   d 8 01 1E 3C 0A 28 00 00 00
   0.010752 1  77              Rx   d 8 45 01 76 64 00 00 00 00
   0.010880 1  600             Rx   d 2 00 00
   0.011050 1  414             Rx   d 3 F0 06 94
   0.011264 1  202             Rx   d 8 01 00 40 21 01 8D 00 CA
   0.012458 1  350             Rx   d 8 00 61 00 10 00 80 12 E3
   0.016256 1  610             Rx   d 7 0E D2 00 33 F4 FF 3B
   0.017962 1  1A1             Rx   d 8 90 85 42 B0 20 4B 02 5C
   0.019797 1  1AB             Rx   d 8 B9 26 32 31 FC EB C0 00
   0.020010 1  A6              Rx   d 7 13 08 7D 0F FE 00 20
   0.020266 1  A5              Rx   d 8 00 08 B4 AF 7D DC 00 32
   0.020522 1  2B0             Rx   d 8 01 1E 3C 0A 28 00 00 00
   0.020736 1  77              Rx   d 8 45 01 76 64 00 00 00 00
   0.020864 1  600             Rx   d 2 00 00
   0.021034 1  414             Rx   d 3 F0 06 94
   0.021248 1  202             Rx   d 8 01 00 40 21 01 8E 00 CA
   0.022485 1  350             Rx   d 8 00 60 00 10 00 80 13 E3
   0.026282 1  726             Rx   d 8 00 00 00 00 58 00 00 00
   0.026496 1  610             Rx   d 7 52 D2 00 33 F4 FF 3B
   0.026752 1  727             Rx   d 8 00 00 FA 0F 00 00 00 00
   0.027008 1  728             Rx   d 8 00 00 00 00 00 00 00 00
   0.027264 1  729             Rx   d 8 66 34 FF 0F FF 0F 00 00
   0.027392 1  630             Rx   d 3 01 00 24
   0.027648 1  655             Rx   d 8 02 00 55 56 65 45 02 00
   0.027946 1  1A1             Rx   d 8 90 85 42 90 20 4B 03 9F
   0.029866 1  1AB             Rx   d 8 B9 26 32 31 FC EB C0 00
   0.030122 1  202             Rx   d 8 01 00 40 21 01 8D 00 CA
   0.030336 1  A6              Rx   d 7 B5 09 7D 0F FE 00 20
   0.030549 1  A5              Rx   d 8 00 09 B4 AF 7D DC 00 32
   0.030805 1  2B0             Rx   d 8 01 1E 3C 0A 28 00 00 00
   0.031061 1  77              Rx   d 8 45 01 76 64 00 00 00 00
   0.031189 1  600             Rx   d 2 00 00
   0.031317 1  414             Rx   d 3 F0 06 94
   0.032469 1  350             Rx   d 8 00 60 00 10 00 80 14 E4
   0.036266 1  610             Rx   d 7 52 D2 00 31 F4 FF 3B
   0.037247 1  640             Rx   d 6 E8 D3 07 F4 E9 03
   0.037930 1  1A1             Rx   d 8 90 85 42 B0 20 4B 04 BE
   0.039807 1  1AB             Rx   d 8 B9 26 32 31 FC EB C0 00
   0.040021 1  A6              Rx   d 7 B1 0A 7D 0F FE 00 20
   0.040277 1  A5              Rx   d 8 00 0A B4 AF 7D DC 00 32
   0.040490 1  2B0             Rx   d 8 01 1E 3C 0A 28 00 00 00
   0.040746 1  77              Rx   d 8 45 01 76 64 00 00 00 00
   0.040874 1  600             Rx   d 2 00 00
   0.041045 1  414             Rx   d 3 F0 06 94
   0.041258 1  202             Rx   d 8 01 00 40 21 01 8D 00 CA
   0.042453 1  350             Rx   d 8 00 60 00 10 00 80 15 E5
   0.046250 1  610             Rx   d 7 76 D2 00 F6 F3 FF 3B
   0.047957 1  1A0             Rx   d 8 04 40 00 24 00 00 01 BF
   0.048170 1  1A1             Rx   d 8 90 85 42 B0 20 4B 05 91
   0.048426 1  726             Rx   d 8 00 00 00 00 58 00 00 00
   0.048682 1  727             Rx   d 8 00 00 FF 0F 00 00 00 00
   0.048938 1  728             Rx   d 8 00 00 00 00 00 00 00 00
   0.049151 1  729             Rx   d 8 66 34 FF 0F FF 0F 00 00
   0.049407 1  655             Rx   d 8 02 04 55 56 65 45 02 00
   0.049791 1  1AB             Rx   d 8 B9 26 32 31 FC EB C0 00
   0.050047 1  A6              Rx   d 7 AE 0B 7D 0F FE 00 20
   0.050261 1  A5              Rx   d 8 00 0B B4 AF 7D DC 00 32
   0.050517 1  2B0             Rx   d 8 01 1E 3C 0A 28 00 00 00
   0.050730 1  77              Rx   d 8 45 01 76 64 00 00 00 00
   0.050901 1  600             Rx   d 2 00 00
   0.051029 1  414             Rx   d 3 F0 06 94
   0.051285 1  202             Rx   d 8 01 00 40 21 01 8D 00 CA
   0.051498 1  114             Rx   d 8 01 00 00 01 02 03 04 05
   0.052479 1  350             Rx   d 8 00 60 00 10 00 80 16 E6
   0.056276 1  610             Rx   d 7 74 D2 00 F8 F3 FF 3B
   0.057940 1  1A1             Rx   d 8 90 85 42 B0 20 4B 06 E0
   0.059775 1  1AB             Rx   d 8 B9 26 32 31 FC EB C0 00
   0.060031 1  A6              Rx   d 7 E9 0C 7D 0F FE 00 20
   0.060244 1  A5              Rx   d 8 00 0C B4 AF 7D DC 00 32
   0.060500 1  2B0             Rx   d 8 01 1E 3C 0A 28 00 00 00
   0.060756 1  77              Rx   d 8 45 01 76 64 00 00 00 00
   0.060884 1  600             Rx   d 2 00 00
   0.061012 1  414             Rx   d 3 F0 06 94
   0.061268 1  202             Rx   d 8 01 00 40 21 01 8D 00 CA
   0.062463 1  350             Rx   d 8 00 60 00 10 00 80 17 E7
   0.066260 1  610             Rx   d 7 52 D2 00 33 F4 FF 3B
   0.067924 1  1A1             Rx   d 8 90 85 42 B0 20 4B 07 CF
   0.069759 1  1AB             Rx   d 8 B9 26 32 31 FC EB C0 00
   0.069972 1  A6              Rx   d 7 EC 0D 7D 0F FE 00 20
   0.070228 1  A5              Rx   d 8 00 0D B4 AF 7D DC 00 32
   0.070442 1  2B0             Rx   d 8 01 1E 3C 0A 28 00 00 00
   0.070698 1  77              Rx   d 8 45 01 76 64 00 00 00 00
   0.070826 1  600             Rx   d 2 00 00
   0.070996 1  414             Rx   d 3 F0 06 94
   0.071210 1  202             Rx   d 8 01 00 40 21 01 8D 00 CA
   0.071466 1  726             Rx   d 8 00 00 00 00 58 00 00 00
   0.071722 1  727             Rx   d 8 00 00 FF 0F 00 00 00 00
   0.071978 1  728             Rx   d 8 00 00 00 00 00 00 00 00
   0.072191 1  729             Rx   d 8 9E 34 FF 0F FF 0F 00 00
   0.072447 1  655             Rx   d 8 02 04 55 56 65 45 02 00
   0.072660 1  350             Rx   d 8 00 60 00 10 00 80 18 E8
   0.076287 1  610             Rx   d 7 52 D2 00 6E F4 FF 3B
   0.077951 1  1A1             Rx   d 8 90 85 42 90 20 4B 08 B9
   0.079743 1  1AB             Rx   d 8 B9 26 32 31 FC EB C0 00
   0.079999 1  A6              Rx   d 7 71 0E 7D 0F FE 00 20
   0.080212 1  A5              Rx   d 8 00 0E B4 AF 7D DC 00 32
   0.080468 1  2B0             Rx   d 8 01 1E 3C 0A 28 00 00 00
   0.080681 1  77              Rx   d 8 45 01 76 64 00 00 00 00
   0.080852 1  600             Rx   d 2 00 00
   0.080980 1  414             Rx   d 3 F0 06 94
   0.081236 1  202             Rx   d 8 01 00 40 21 01 8D 00 CA
   0.082473 1  350             Rx   d 8 00 60 00 10 00 80 19 E9
   0.086271 1  610             Rx   d 7 C1 D1 00 6E F4 FF 3B
   0.087935 1  1A1             Rx   d 8 90 85 42 B0 20 4B 09 7A
   0.089727 1  1AB             Rx   d 8 B9 26 32 31 FC EB C0 00
   0.089983 1  A6              Rx   d 7 EF 0F 7D 0F FE 00 20
   0.090196 1  A5              Rx   d 8 00 0F B4 AF 7D DC 00 32
   0.090452 1  2B0             Rx   d 8 01 1E 3C 0A 28 00 00 00
   0.090708 1  77              Rx   d 8 45 01 76 64 00 00 00 00
   0.090836 1  600             Rx   d 2 00 00
   0.090964 1  414             Rx   d 3 F0 06 94
   0.091220 1  202             Rx   d 8 01 00 40 21 01 8D 00 CA
   0.092457 1  350             Rx   d 8 00 60 00 10 00 80 1A EA
   0.093140 1  726             Rx   d 8 02 00 00 00 58 00 00 00
   0.093396 1  727             Rx   d 8 00 00 FF 0F 00 00 00 00
   0.093652 1  728             Rx   d 8 00 00 00 00 00 00 00 00
   0.093865 1  729             Rx   d 8 9E 34 FF 0F FF 0F 00 00
   0.094121 1  655             Rx   d 8 02 04 55 56 65 45 02 00
   0.096254 1  610             Rx   d 7 76 D2 00 31 F4 FF 3B
   0.097961 1  1A0             Rx   d 8 04 40 00 24 00 00 02 CE
   0.098174 1  1A1             Rx   d 8 90 85 42 B0 20 4B 0A 0B
   0.098430 1  5A0             Rx   d 8 0A 23 0D 00 00 00 00 00
   0.099838 1  1AB             Rx   d 8 B9 26 32 31 FC EB C0 00
   0.100052 1  A6              Rx   d 7 98 00 7D 0F FE 00 20
   0.100308 1  A5              Rx   d 8 00 00 B4 AF 7D DC 00 32
   0.100521 1  2B0             Rx   d 8 01 1E 3C 0A 28 00 00 00
   0.100777 1  77              Rx   d 8 45 01 76 64 00 00 00 00
   0.100905 1  600             Rx   d 2 00 00
   0.101076 1  414             Rx   d 3 F0 06 94
   0.101289 1  202             Rx   d 8 01 00 40 21 01 8D 00 CA
   0.102484 1  350             Rx   d 8 00 60 00 10 00 80 1B EB
   0.106281 1  610             Rx   d 7 52 D2 00 31 F4 FF 3B
   0.107945 1  1A1             Rx   d 8 90 85 42 B0 20 4B 0B 24
   0.109780 1  1AB             Rx   d 8 B9 26 32 31 FC EB C0 00
   0.109993 1  A6              Rx   d 7 76 01 7D 0F FE 00 20
   0.110249 1  A5              Rx   d 8 00 01 B4 AF 7D DC 00 32
   0.110505 1  2B0             Rx   d 8 01 1E 3C 0A 28 00 00 00
   0.110718 1  77              Rx   d 8 45 01 76 64 00 00 00 00
   0.110889 1  600             Rx   d 2 00 00
   0.111017 1  414             Rx   d 3 F0 06 94
   0.111273 1  202             Rx   d 8 01 00 40 21 01 8D 00 CA
   0.112468 1  350             Rx   d 8 00 60 00 10 00 80 1C EC
   0.114644 1  726             Rx   d 8 02 00 00 00 58 00 00 00
   0.114900 1  727             Rx   d 8 00 00 FF 0F 00 00 00 00
   0.115156 1  728             Rx   d 8 00 00 00 00 00 00 00 00
   0.115369 1  729             Rx   d 8 9E 34 FF 0F FF 0F 00 00
   0.115625 1  655             Rx   d 8 02 04 55 56 65 45 02 00
   0.116265 1  610             Rx   d 7 30 D2 00 F5 F3 FF 3B
   0.117929 1  1A1             Rx   d 8 90 85 42 B0 20 4B 0C E9
   0.119806 1  1AB             Rx   d 8 B9 26 32 31 FC EB C0 00
   0.120019 1  A6              Rx   d 7 6D 02 7D 0F FE 00 20
   0.120233 1  A5              Rx   d 8 00 02 B4 AF 7D DC 00 32
   0.120489 1  2B0             Rx   d 8 01 1E 3C 0A 28 00 00 00
   0.120745 1  77              Rx   d 8 45 01 76 64 00 00 00 00
   0.120873 1  600             Rx   d 2 00 00
   0.121001 1  414             Rx   d 3 F0 06 94
   0.121257 1  202             Rx   d 8 01 00 40 21 01 8D 00 CA
   0.122451 1  350             Rx   d 8 00 60 00 10 00 80 1D ED
   0.126249 1  610             Rx   d 7 52 D2 00 F5 F3 FF 3B
   0.127187 1  630             Rx   d 3 01 00 24
   0.127955 1  1A1             Rx   d 8 90 85 42 B0 20 4B 0D C6
   0.129875 1  1AB             Rx   d 8 B9 26 32 31 FC EB C0 00
   0.130089 1  202             Rx   d 8 01 00 40 21 01 8D 00 CA
   0.130302 1  A6              Rx   d 7 44 03 7D 0F FE 00 20
   0.130558 1  A5              Rx   d 8 00 03 B4 AF 7D DC 00 32
   0.130771 1  2B0             Rx   d 8 01 1E 3C 0A 28 00 00 00
   0.131027 1  77              Rx   d 8 45 01 76 64 00 00 00 00
   0.131155 1  600             Rx   d 2 00 00
   0.131326 1  414             Rx   d 3 F0 06 94
   0.132478 1  350             Rx   d 8 00 60 00 10 00 80 1E EE
   0.136147 1  726             Rx   d 8 02 00 00 00 58 00 00 00
   0.136361 1  610             Rx   d 7 55 D2 00 33 F4 FF 3B
   0.136617 1  727             Rx   d 8 00 00 FF 0F 00 00 00 00
   0.136873 1  728             Rx   d 8 00 00 00 00 00 00 00 00
   0.137129 1  729             Rx   d 8 9E 34 FF 0F FF 0F 00 00
   0.137299 1  640             Rx   d 6 E8 D3 07 F4 E9 03
   0.137555 1  655             Rx   d 8 02 04 55 56 65 45 02 00
   0.137939 1  1A1             Rx   d 8 90 85 42 B0 20 4B 0E B7
   0.139774 1  1AB             Rx   d 8 B9 26 32 31 FC EB C0 00
   0.140030 1  A6              Rx   d 7 2B 04 7D 0F FE 00 20
   0.140243 1  A5              Rx   d 8 00 04 B4 AF 7D DC 00 32
   0.140499 1  2B0             Rx   d 8 01 1E 3C 0A 28 00 00 00
   0.140712 1  77              Rx   d 8 45 01 76 64 00 00 00 00
   0.140883 1  600             Rx   d 2 00 00
   0.141011 1  414             Rx   d 3 F0 06 94
   0.141267 1  202             Rx   d 8 01 00 40 21 01 8C 00 CA
   0.142462 1  350             Rx   d 8 00 60 00 10 00 80 1F EF
   0.146259 1  610             Rx   d 7 FB D2 00 33 F4 FF 3B
   0.147966 1  1A0             Rx   d 8 04 40 00 24 00 00 03 E1
   0.148179 1  1A1             Rx   d 8 90 85 42 B0 20 4B 0F 98
   0.149843 1  1AB             Rx   d 8 B9 26 32 31 FC EB C0 00
   0.150099 1  202             Rx   d 8 01 00 40 21 01 8C 00 CA
   0.150312 1  A6              Rx   d 7 AB 05 7D 0F FE 00 20
   0.150526 1  A5              Rx   d 8 00 05 B4 AF 7D DC 00 32
   0.150782 1  2B0             Rx   d 8 01 1E 3C 0A 28 00 00 00
   0.151038 1  77              Rx   d 8 45 01 76 64 00 00 00 00
   0.151166 1  600             Rx   d 2 00 00
   0.151294 1  414             Rx   d 3 F0 06 94
   0.151550 1  114             Rx   d 8 01 00 00 01 02 03 04 05
   0.152488 1  350             Rx   d 8 00 60 00 10 00 80 10 E0
   0.156286 1  610             Rx   d 7 30 D2 00 33 F4 FF 3B
   0.157864 1  726             Rx   d 8 02 00 00 00 58 00 00 00
   0.158120 1  1A1             Rx   d 8 90 85 42 B0 20 4B 00 02
   0.158334 1  727             Rx   d 8 00 00 FF 0F 00 00 00 00
   0.158590 1  728             Rx   d 8 00 00 00 00 00 00 00 00
   0.158846 1  729             Rx   d 8 9E 34 FF 0F FF 0F 00 00
   0.159059 1  655             Rx   d 8 02 04 55 56 65 45 02 00
   0.159742 1  1AB             Rx   d 8 B9 26 32 31 FC EB C0 00
   0.159955 1  A6              Rx   d 7 3D 06 7D 0F FE 00 20
   0.160211 1  A5              Rx   d 8 00 06 B4 AF 7D DC 00 32
   0.160467 1  2B0             Rx   d 8 01 1E 3C 0A 28 00 00 00
   0.160680 1  77              Rx   d 8 45 01 76 64 00 00 00 00
   0.160808 1  600             Rx   d 2 00 00
   0.160979 1  414             Rx   d 3 F0 06 94
   0.161192 1  202             Rx   d 8 01 00 40 21 01 8C 00 CA
   0.162472 1  350             Rx   d 8 00 60 00 10 00 80 11 E1
   0.166269 1  610             Rx   d 7 0A D2 00 33 F4 FF 3B
   0.167933 1  1A1             Rx   d 8 90 85 42 B0 20 4B 01 2D
   0.169725 1  1AB             Rx   d 8 B9 26 32 31 FC EB C0 00
   0.169981 1  A6              Rx   d 7 6A 07 7D 0F FE 00 20
   0.170195 1  A5              Rx   d 8 00 07 B4 AF 7D DC 00 32
   0.170451 1  2B0             Rx   d 8 01 1E 3C 0A 28 00 00 00
   0.170664 1  77              Rx   d 8 45 01 76 64 00 00 00 00
   0.170835 1  600             Rx   d 2 00 00
   0.170963 1  414             Rx   d 3 F0 06 94
   0.171219 1  202             Rx   d 8 01 00 40 21 01 8C 00 CA
   0.172456 1  350             Rx   d 8 00 60 00 10 00 80 12 E2
   0.176253 1  610             Rx   d 7 52 D2 00 31 F4 FF 3B
   0.177960 1  1A1             Rx   d 8 90 85 42 B0 20 4B 02 5C
   0.179624 1  726             Rx   d 8 02 00 00 00 58 00 00 00
   0.179880 1  727             Rx   d 8 00 00 FF 0F 00 00 00 00
   0.180093 1  1AB             Rx   d 8 B9 26 32 31 FC EB C0 00
   0.180307 1  A6              Rx   d 7 13 08 7D 0F FE 00 20
   0.180563 1  A5              Rx   d 8 00 08 B4 AF 7D DC 00 32
   0.180776 1  2B0             Rx   d 8 01 1E 3C 0A 28 00 00 00
   0.181032 1  77              Rx   d 8 45 01 76 64 00 00 00 00
   0.181160 1  600             Rx   d 2 00 00
   0.181331 1  414             Rx   d 3 F0 06 94
   0.181544 1  202             Rx   d 8 01 00 40 21 01 8C 00 CA
   0.181800 1  728             Rx   d 8 00 00 00 00 00 00 00 00
   0.182056 1  729             Rx   d 8 9E 34 FF 0F FF 0F 00 00
   0.182269 1  655             Rx   d 8 02 04 55 56 65 45 02 00
   0.182525 1  350             Rx   d 8 00 60 00 10 00 80 13 E3
   0.186280 1  610             Rx   d 7 76 D2 00 31 F4 FF 3B
   0.187944 1  1A1             Rx   d 8 90 85 42 B0 20 4B 03 73
   0.189778 1  1AB             Rx   d 8 B9 26 32 31 FC EB C0 00
   0.189992 1  A6              Rx   d 7 B5 09 7D 0F FE 00 20
   0.190248 1  A5              Rx   d 8 00 09 B4 AF 7D DC 00 32
   0.190461 1  2B0             Rx   d 8 01 1E 3C 0A 28 00 00 00
   0.190717 1  77              Rx   d 8 45 01 76 64 00 00 00 00
   0.190845 1  600             Rx   d 2 00 00
   0.191016 1  414             Rx   d 3 F0 06 94
   0.191229 1  202             Rx   d 8 01 00 40 21 01 8D 00 CA
   0.192466 1  350             Rx   d 8 00 60 00 10 00 80 14 E4
   0.196264 1  610             Rx   d 7 52 D2 00 33 F4 FF 3B
   0.197970 1  1A0             Rx   d 8 04 40 00 24 00 00 04 2C
   0.198184 1  1A1             Rx   d 8 90 85 42 B0 20 4B 04 BE
   0.198440 1  5A0             Rx   d 8 0A 23 0D 00 00 00 00 00
   0.199848 1  1AB             Rx   d 8 B9 26 32 31 FC EB C0 00
   0.200061 1  202             Rx   d 8 01 00 40 21 01 8D 00 CA
   0.200317 1  A6              Rx   d 7 B1 0A 7D 0F FE 00 20
   0.200530 1  A5              Rx   d 8 00 0A B4 AF 7D DC 00 32
   0.200786 1  2B0             Rx   d 8 01 1E 3C 0A 28 00 00 00
   0.201000 1  77              Rx   d 8 45 01 76 64 00 00 00 00
   0.201170 1  600             Rx   d 2 00 00
   0.201298 1  414             Rx   d 3 F0 06 94
   0.201554 1  726             Rx   d 8 02 00 00 00 58 00 00 00
   0.201810 1  727             Rx   d 8 00 00 FF 0F 00 00 00 00
   0.202066 1  728             Rx   d 8 00 00 00 00 00 00 00 00
   0.202280 1  729             Rx   d 8 9E 34 FF 0F FF 0F 00 00
   0.202536 1  350             Rx   d 8 00 60 00 10 00 80 15 E5
   0.202749 1  655             Rx   d 8 02 04 55 56 65 45 02 00
   0.206247 1  610             Rx   d 7 52 D2 00 33 F4 FF 3B
   0.207954 1  1A1             Rx   d 8 90 85 42 B0 20 4B 05 91
   0.209789 1  1AB             Rx   d 8 B9 26 32 31 FC EB C0 00
   0.210045 1  A6              Rx   d 7 AE 0B 7D 0F FE 00 20
   0.210258 1  A5              Rx   d 8 00 0B B4 AF 7D DC 00 32
   0.210514 1  2B0             Rx   d 8 01 1E 3C 0A 28 00 00 00
   0.210727 1  77              Rx   d 8 45 01 76 64 00 00 00 00
   0.210898 1  600             Rx   d 2 00 00
   0.211026 1  414             Rx   d 3 F0 06 94
   0.211282 1  202             Rx   d 8 01 00 40 21 01 8D 00 C9
   0.212477 1  350             Rx   d 8 00 60 00 10 00 80 16 E6
   0.216274 1  610             Rx   d 7 52 D2 00 33 F4 FF 3B
   0.217938 1  1A1             Rx   d 8 90 85 42 B0 20 4B 06 E0
   0.219773 1  1AB             Rx   d 8 B9 26 32 31 FC EB C0 00
   0.219986 1  A6              Rx   d 7 E9 0C 7D 0F FE 00 20
   0.220242 1  A5              Rx   d 8 00 0C B4 AF 7D DC 00 32
   0.220455 1  2B0             Rx   d 8 01 1E 3C 0A 28 00 00 00
   0.220711 1  77              Rx   d 8 45 01 76 64 00 00 00 00
   0.220839 1  600             Rx   d 2 00 00
   0.221010 1  414             Rx   d 3 F0 06 94
   0.221223 1  202             Rx   d 8 01 00 40 21 01 8E 00 C9
   0.222461 1  350             Rx   d 8 00 60 00 10 00 80 17 E7
   0.223271 1  726             Rx   d 8 02 00 00 00 58 00 00 00
   0.223485 1  727             Rx   d 8 00 00 FF 0F 00 00 00 00
   0.223741 1  728             Rx   d 8 00 00 00 00 00 00 00 00
   0.223997 1  729             Rx   d 8 9E 34 FF 0F FF 0F 00 00
   0.224210 1  655             Rx   d 8 02 04 55 56 65 45 02 00
   0.226258 1  610             Rx   d 7 1D D3 00 31 F4 FF 3B
   0.227196 1  630             Rx   d 3 01 00 24
   0.227964 1  1A1             Rx   d 8 90 85 42 B0 20 4B 07 CF
   0.229842 1  1AB             Rx   d 8 B9 26 32 31 FC EB C0 00
   0.230098 1  202             Rx   d 8 01 00 40 21 01 8E 00 C9
   0.230311 1  A6              Rx   d 7 EC 0D 7D 0F FE 00 20
   0.230524 1  A5              Rx   d 8 00 0D B4 AF 7D DC 00 32
   0.230780 1  2B0             Rx   d 8 01 1E 3C 0A 28 00 00 00
   0.231036 1  77              Rx   d 8 45 01 76 64 00 00 00 00
   0.231164 1  600             Rx   d 2 00 00
   0.231292 1  414             Rx   d 3 F0 06 94
   0.232487 1  350             Rx   d 8 00 60 00 10 00 80 18 E8
   0.236242 1  610             Rx   d 7 76 D2 00 31 F4 FF 3B
   0.237266 1  640             Rx   d 6 E8 D3 07 F4 E9 03
   0.237948 1  1A1             Rx   d 8 90 85 42 B0 20 4B 08 55
   0.239783 1  1AB             Rx   d 8 B9 26 32 31 FC EB C0 00
   0.240039 1  A6              Rx   d 7 71 0E 7D 0F FE 00 20
   0.240252 1  A5              Rx   d 8 00 0E B4 AF 7D DC 00 32
   0.240508 1  2B0             Rx   d 8 01 1E 3C 0A 28 00 00 00
   0.240722 1  77              Rx   d 8 45 01 76 64 00 00 00 00
   0.240892 1  600             Rx   d 2 00 00
   0.241020 1  414             Rx   d 3 F0 06 94
   0.241276 1  202             Rx   d 8 01 00 40 21 01 8D 00 C9
   0.242471 1  350             Rx   d 8 00 60 00 10 00 80 19 E9
   0.244903 1  726             Rx   d 8 02 00 00 00 58 00 00 00
   0.245159 1  727             Rx   d 8 00 00 FF 0F 00 00 00 00
   0.245415 1  728             Rx   d 8 00 00 00 00 00 00 00 00
   0.245628 1  729             Rx   d 8 C6 34 FF 0F F9 0F 00 00
   0.245884 1  655             Rx   d 8 02 04 55 56 65 45 02 00
   0.246268 1  610             Rx   d 7 B8 D2 00 F5 F3 FF 3B
   0.247975 1  1A0             Rx   d 8 04 40 00 24 00 00 05 03
   0.248188 1  1A1             Rx   d 8 90 85 42 B0 20 4B 09 7A
   0.249767 1  1AB             Rx   d 8 B9 26 32 31 FC EB C0 00
   0.249980 1  A6              Rx   d 7 EF 0F 7D 0F FE 00 20
   0.250236 1  A5              Rx   d 8 00 0F B4 AF 7D DC 00 32
   0.250449 1  2B0             Rx   d 8 01 1E 3C 0A 28 00 00 00
   0.250705 1  77              Rx   d 8 45 01 76 64 00 00 00 00
   0.250833 1  600             Rx   d 2 00 00
   0.251004 1  414             Rx   d 3 F0 06 94
   0.251217 1  202             Rx   d 8 01 00 40 21 01 8D 00 CA
   0.251473 1  114             Rx   d 8 01 00 00 01 02 03 04 05
   0.252455 1  350             Rx   d 8 00 60 00 10 00 80 1A EA
   0.256252 1  610             Rx   d 7 55 D2 00 F5 F3 FF 3B
   0.257959 1  1A1             Rx   d 8 90 85 42 B0 20 4B 0A 0B
   0.259708 1  1AB             Rx   d 8 B9 26 32 31 FC EB C0 00
   0.259964 1  A6              Rx   d 7 98 00 7D 0F FE 00 20
   0.260177 1  A5              Rx   d 8 00 00 B4 AF 7D DC 00 32
   0.260433 1  2B0             Rx   d 8 01 1E 3C 0A 28 00 00 00
   0.260689 1  77              Rx   d 8 45 01 76 64 00 00 00 00
   0.260817 1  600             Rx   d 2 00 00
   0.260945 1  414             Rx   d 3 F0 06 94
   0.261201 1  202             Rx   d 8 01 00 40 21 01 8E 00 CA
   0.262481 1  350             Rx   d 8 00 60 00 10 00 80 1B EB
   0.266279 1  610             Rx   d 7 30 D2 00 6E F4 FF 3B
   0.266620 1  726             Rx   d 8 00 00 00 00 58 00 00 00
   0.266876 1  727             Rx   d 8 00 00 FF 0F 00 00 00 00
   0.267089 1  728             Rx   d 8 00 00 00 00 00 00 00 00
   0.267345 1  729             Rx   d 8 C6 34 FF 0F F9 0F 00 00
   0.267558 1  655             Rx   d 8 02 04 55 56 65 45 02 00
   0.267942 1  1A1             Rx   d 8 90 85 42 B0 20 4B 0B 24
   0.269734 1  1AB             Rx   d 8 B9 26 32 31 FC EB C0 00
   0.269948 1  A6              Rx   d 7 76 01 7D 0F FE 00 20
   0.270204 1  A5              Rx   d 8 00 01 B4 AF 7D DC 00 32
   0.270417 1  2B0             Rx   d 8 01 1E 3C 0A 28 00 00 00
   0.270673 1  77              Rx   d 8 45 01 76 64 00 00 00 00
   0.270801 1  600             Rx   d 2 00 00
   0.270972 1  414             Rx   d 3 F0 06 94
   0.271185 1  202             Rx   d 8 01 00 40 21 01 8D 00 CA
   0.272465 1  350             Rx   d 8 00 60 00 10 00 80 1C EC
   0.276262 1  610             Rx   d 7 96 D2 00 6E F4 FF 3B
   0.277926 1  1A1             Rx   d 8 90 85 42 B0 20 4B 0C E9
   0.279804 1  1AB             Rx   d 8 B9 26 32 31 FC EB C0 00
   0.280017 1  A6              Rx   d 7 6D 02 7D 0F FE 00 20
   0.280273 1  A5              Rx   d 8 00 02 B4 AF 7D DC 00 32
   0.280486 1  2B0             Rx   d 8 01 1E 3C 0A 28 00 00 00
   0.280742 1  77              Rx   d 8 45 01 76 64 00 00 00 00
   0.280870 1  600             Rx   d 2 00 00
   0.281041 1  414             Rx   d 3 F0 06 94
   0.281254 1  202             Rx   d 8 01 00 40 21 01 8D 00 CA
   0.282492 1  350             Rx   d 8 00 60 00 10 00 80 1D ED
   0.286246 1  610             Rx   d 7 52 D2 00 33 F4 FF 3B
   0.287953 1  1A1             Rx   d 8 90 85 42 B0 20 4B 0D C6
   0.288166 1  726             Rx   d 8 00 00 00 00 58 00 00 00
   0.288422 1  727             Rx   d 8 00 00 FF 0F 00 00 00 00
   0.288678 1  728             Rx   d 8 00 00 00 00 00 00 00 00
   0.288934 1  729             Rx   d 8 C6 34 FF 0F F9 0F 00 00
   0.289147 1  655             Rx   d 8 02 04 55 56 65 45 02 00
   0.289787 1  1AB             Rx   d 8 B9 26 32 31 FC EB C0 00
   0.290001 1  A6              Rx   d 7 44 03 7D 0F FE 00 20
   0.290257 1  A5              Rx   d 8 00 03 B4 AF 7D DC 00 32
   0.290470 1  2B0             Rx   d 8 01 1E 3C 0A 28 00 00 00
   0.290726 1  77              Rx   d 8 45 01 76 64 00 00 00 00
   0.290854 1  600             Rx   d 2 00 00
   0.291025 1  414             Rx   d 3 F0 06 94
   0.291238 1  202             Rx   d 8 01 00 40 21 01 8D 00 CA
   0.292475 1  350             Rx   d 8 00 60 00 10 00 80 1E EE
   0.296273 1  610             Rx   d 7 2E D2 00 6E F4 FF 3B
   0.297937 1  1A0             Rx   d 8 04 40 00 24 00 00 06 72
   0.298193 1  1A1             Rx   d 8 90 85 42 B0 20 4B 0E B7
   0.298449 1  5A0             Rx   d 8 0A 23 0D 00 00 00 00 00
   0.299814 1  1AB             Rx   d 8 B9 26 32 31 FC EB C0 00
   0.300070 1  202             Rx   d 8 01 00 40 21 01 8D 00 CA
   0.300283 1  A6              Rx   d 7 2B 04 7D 0F FE 00 20
   0.300539 1  A5              Rx   d 8 00 04 B4 AF 7D DC 00 32
   0.300753 1  2B0             Rx   d 8 01 1E 3C 0A 28 00 00 00
   0.301009 1  77              Rx   d 8 45 01 76 64 00 00 00 00
   0.301137 1  600             Rx   d 2 00 00
   0.301307 1  414             Rx   d 3 F0 06 94
   0.302459 1  350             Rx   d 8 00 60 00 10 00 80 1F EF
   0.306257 1  610             Rx   d 7 FB D2 00 33 F4 FF 3B
   0.307963 1  1A1             Rx   d 8 90 85 42 B0 20 4B 0F 98
   0.309670 1  726             Rx   d 8 00 00 00 00 58 00 00 00
   0.309926 1  727             Rx   d 8 00 00 FF 0F 00 00 00 00
   0.310139 1  A6              Rx   d 7 AB 05 7D 0F FE 00 20
   0.310395 1  A5              Rx   d 8 00 05 B4 AF 7D DC 00 32
   0.310608 1  2B0             Rx   d 8 01 1E 3C 0A 28 00 00 00
   0.310864 1  77              Rx   d 8 45 01 76 64 00 00 00 00
   0.310992 1  600             Rx   d 2 00 00
   0.311163 1  414             Rx   d 3 F0 06 94
   0.311376 1  1AB             Rx   d 8 B9 26 32 31 FC EB C0 00
   0.311632 1  202             Rx   d 8 01 00 40 21 01 8D 00 CA
   0.311888 1  728             Rx   d 8 00 00 00 00 00 00 00 00
   0.312102 1  729             Rx   d 8 C6 34 FF 0F F9 0F 00 00
   0.312358 1  655             Rx   d 8 02 04 55 56 65 45 02 00
   0.312571 1  350             Rx   d 8 00 60 00 10 00 80 10 E0
   0.316240 1  610             Rx   d 7 52 D2 00 33 F4 FF 3B
   0.317947 1  1A1             Rx   d 8 90 85 42 B0 20 4B 00 02
   0.319782 1  1AB             Rx   d 8 B9 26 32 31 FC EB C0 00
   0.319995 1  A6              Rx   d 7 3D 06 7D 0F FE 00 20
   0.320251 1  A5              Rx   d 8 00 06 B4 AF 7D DC 00 32
   0.320507 1  2B0             Rx   d 8 01 1E 3C 0A 28 00 00 00
   0.320720 1  77              Rx   d 8 45 01 76 64 00 00 00 00
   0.320848 1  600             Rx   d 2 00 00
   0.321019 1  414             Rx   d 3 F0 06 94
   0.321275 1  202             Rx   d 8 01 00 40 21 01 8D 00 CA
   0.322470 1  350             Rx   d 8 00 60 00 10 00 80 11 E1
   0.326267 1  610             Rx   d 7 76 D2 00 F5 F3 FF 3B
   0.327206 1  630             Rx   d 3 01 00 24
   0.327931 1  1A1             Rx   d 8 90 85 42 90 20 4B 01 C1
   0.329808 1  1AB             Rx   d 8 B9 26 32 31 FC EB C0 00
   0.330064 1  202             Rx   d 8 01 00 40 21 01 8D 00 CA
   0.330278 1  A6              Rx   d 7 6A 07 7D 0F FE 00 20
   0.330534 1  A5              Rx   d 8 00 07 B4 AF 7D DC 00 32
   0.330747 1  2B0             Rx   d 8 01 1E 3C 0A 28 00 00 00
   0.331003 1  77              Rx   d 8 45 01 76 64 00 00 00 00
   0.331131 1  600             Rx   d 2 00 00
   0.331301 1  414             Rx   d 3 F0 06 94
   0.331515 1  726             Rx   d 8 00 00 00 00 58 00 00 00
   0.331771 1  727             Rx   d 8 00 00 FF 0F 00 00 00 00
   0.332027 1  728             Rx   d 8 00 00 00 00 00 00 00 00
   0.332240 1  729             Rx   d 8 C6 34 FF 0F F9 0F 00 00
   0.332496 1  350             Rx   d 8 00 60 00 10 00 80 12 E2
   0.332709 1  655             Rx   d 8 02 04 55 56 65 45 02 00
   0.336251 1  610             Rx   d 7 76 D2 00 F5 F3 FF 3B
   0.337232 1  640             Rx   d 6 E8 D3 07 F4 E9 03
   0.337957 1  1A1             Rx   d 8 90 85 42 B0 20 4B 02 5C
   0.339749 1  1AB             Rx   d 8 B9 26 32 31 FC EB C0 00
   0.339963 1  A6              Rx   d 7 13 08 7D 0F FE 00 20
   0.340219 1  A5              Rx   d 8 00 08 B4 AF 7D DC 00 32
   0.340432 1  2B0             Rx   d 8 01 1E 3C 0A 28 00 00 00
   0.340688 1  77              Rx   d 8 45 01 76 64 00 00 00 00
   0.340816 1  600             Rx   d 2 00 00
   0.340987 1  414             Rx   d 3 F0 06 94
   0.341200 1  202             Rx   d 8 01 00 40 21 01 8D 00 CA
   0.342480 1  350             Rx   d 8 00 60 00 10 00 80 13 E3
   0.346277 1  610             Rx   d 7 52 D2 00 F5 F3 FF 3B
   0.347941 1  1A0             Rx   d 8 04 40 00 24 00 00 07 5D
   0.348197 1  1A1             Rx   d 8 90 85 42 B0 20 4B 03 73
   0.349733 1  1AB             Rx   d 8 B9 26 32 31 FC EB C0 00
   0.349989 1  A6              Rx   d 7 B5 09 7D 0F FE 00 20
   0.350203 1  A5              Rx   d 8 00 09 B4 AF 7D DC 00 32
   0.350459 1  2B0             Rx   d 8 01 1E 3C 0A 28 00 00 00
   0.350672 1  77              Rx   d 8 45 01 76 64 00 00 00 00
   0.350843 1  600             Rx   d 2 00 00
   0.350971 1  414             Rx   d 3 F0 06 94
   0.351227 1  202             Rx   d 8 01 00 40 21 01 8D 00 CA
   0.351440 1  114             Rx   d 8 01 00 00 01 02 03 04 05
   0.352464 1  350             Rx   d 8 00 60 00 10 00 80 14 E4
   0.353104 1  726             Rx   d 8 00 00 00 00 58 00 00 00
   0.353317 1  727             Rx   d 8 00 00 FF 0F 00 00 00 00
   0.353573 1  728             Rx   d 8 00 00 00 00 00 00 00 00
   0.353829 1  729             Rx   d 8 C6 34 FF 0F F9 0F 00 00
   0.354042 1  655             Rx   d 8 02 04 55 56 65 45 02 00
   0.356261 1  610             Rx   d 7 52 D2 00 BA F3 FF 3B
   0.357925 1  1A1             Rx   d 8 90 85 42 B0 20 4B 04 BE
   0.359717 1  1AB             Rx   d 8 B9 26 32 31 FC EB C0 00
   0.359973 1  A6              Rx   d 7 B1 0A 7D 0F FE 00 20
   0.360186 1  A5              Rx   d 8 00 0A B4 AF 7D DC 00 32
   0.360442 1  2B0             Rx   d 8 01 1E 3C 0A 28 00 00 00
   0.360698 1  77              Rx   d 8 45 01 76 64 00 00 00 00
   0.360826 1  600             Rx   d 2 00 00
   0.360954 1  414             Rx   d 3 F0 06 94
   0.361210 1  202             Rx   d 8 01 00 40 21 01 8D 00 CA
   0.362490 1  350             Rx   d 8 00 60 00 10 00 80 15 E5
   0.366245 1  610             Rx   d 7 76 D2 00 F6 F3 FF 3B
   0.367952 1  1A1             Rx   d 8 90 85 42 B0 20 4B 05 91
   0.369786 1  1AB             Rx   d 8 B9 26 32 31 FC EB C0 00
   0.370000 1  A6              Rx   d 7 AE 0B 7D 0F FE 00 20
   0.370256 1  A5              Rx   d 8 00 0B B4 AF 7D DC 00 32
   0.370469 1  2B0             Rx   d 8 01 1E 3C 0A 28 00 00 00
   0.370725 1  77              Rx   d 8 45 01 76 64 00 00 00 00
   0.370853 1  600             Rx   d 2 00 00
   0.371024 1  414             Rx   d 3 F0 06 94
   0.371237 1  202             Rx   d 8 01 00 40 21 01 8D 00 CA
   0.372474 1  350             Rx   d 8 00 60 00 10 00 80 16 E6
   0.374778 1  726             Rx   d 8 00 00 00 00 58 00 00 00
   0.374991 1  727             Rx   d 8 00 00 FF 0F 00 00 00 00
   0.375247 1  728             Rx   d 8 00 00 00 00 00 00 00 00
   0.375503 1  729             Rx   d 8 C6 34 FF 0F F9 0F 00 00
   0.375717 1  655             Rx   d 8 02 04 55 56 65 45 02 00
   0.376271 1  610             Rx   d 7 C1 D1 00 F5 F3 FF 3B
   0.377935 1  1A1             Rx   d 8 90 85 42 B0 20 4B 06 E0
   0.379813 1  1AB             Rx   d 8 B9 26 32 31 FC EB C0 00
   0.380069 1  202             Rx   d 8 01 00 40 21 01 8D 00 CA
   0.380282 1  A6              Rx   d 7 E9 0C 7D 0F FE 00 20
   0.380495 1  A5              Rx   d 8 00 0C B4 AF 7D DC 00 32
   0.380751 1  2B0             Rx   d 8 01 1E 3C 0A 28 00 00 00
   0.381007 1  77              Rx   d 8 45 01 76 64 00 00 00 00
   0.381135 1  600             Rx   d 2 00 00
   0.381263 1  414             Rx   d 3 F0 06 94
   0.382458 1  350             Rx   d 8 00 60 00 10 00 80 17 E7
   0.386255 1  610             Rx   d 7 1D D3 00 F5 F3 FF 3B
   0.387962 1  1A1             Rx   d 8 90 85 42 B0 20 4B 07 CF
   0.389754 1  1AB             Rx   d 8 B9 26 32 31 FC EB C0 00
   0.390010 1  A6              Rx   d 7 EC 0D 7D 0F FE 00 20
   0.390223 1  A5              Rx   d 8 00 0D B4 AF 7D DC 00 32
   0.390479 1  2B0             Rx   d 8 01 1E 3C 0A 28 00 00 00
   0.390693 1  77              Rx   d 8 45 01 76 64 00 00 00 00
   0.390863 1  600             Rx   d 2 00 00
   0.390991 1  414             Rx   d 3 F0 06 94
   0.391247 1  202             Rx   d 8 01 00 40 21 01 8D 00 CA
   0.392485 1  350             Rx   d 8 00 60 00 10 00 80 18 E8
   0.396239 1  610             Rx   d 7 30 D2 00 31 F4 FF 3B
   0.396495 1  726             Rx   d 8 00 00 00 00 58 00 00 00
   0.396751 1  727             Rx   d 8 00 00 FF 0F 00 00 00 00
   0.397007 1  728             Rx   d 8 00 00 00 00 00 00 00 00
   0.397220 1  729             Rx   d 8 C6 34 FF 0F F9 0F 00 00
   0.397476 1  655             Rx   d 8 02 04 55 56 65 45 02 00
   0.397946 1  1A0             Rx   d 8 04 40 00 24 00 00 08 C7
   0.398202 1  1A1             Rx   d 8 90 85 42 B0 20 4B 08 55
   0.398415 1  5A0             Rx   d 8 0A 23 0D 00 00 00 00 00
   0.399823 1  1AB             Rx   d 8 B9 26 32 31 FC EB C0 00
   0.400036 1  202             Rx   d 8 01 00 40 21 01 8D 00 CA
   0.400250 1  A6              Rx   d 7 71 0E 7D 0F FE 00 20
   0.400506 1  A5              Rx   d 8 00 0E B4 AF 7D DC 00 32
   0.400762 1  2B0             Rx   d 8 01 1E 3C 0A 28 00 00 00
   0.400975 1  77              Rx   d 8 45 01 76 64 00 00 00 00
   0.401103 1  600             Rx   d 2 00 00
   0.401274 1  414             Rx   d 3 F0 06 94
   0.402468 1  350             Rx   d 8 00 60 00 10 00 80 19 E9
   0.406266 1  610             Rx   d 7 76 D2 00 6E F4 FF 3B
   0.407930 1  1A1             Rx   d 8 90 85 42 B0 20 4B 09 7A
   0.409764 1  1AB             Rx   d 8 B9 26 32 31 FC EB C0 00
   0.409978 1  A6              Rx   d 7 EF 0F 7D 0F FE 00 20
   0.410234 1  A5              Rx   d 8 00 0F B4 AF 7D DC 00 32
   0.410490 1  2B0             Rx   d 8 01 1E 3C 0A 28 00 00 00
   0.410703 1  77              Rx   d 8 45 01 76 64 00 00 00 00
   0.410959 1  333             Rx   d 8 00 00 00 00 00 00 00 00
   0.411087 1  600             Rx   d 2 00 00
   0.411258 1  414             Rx   d 3 F0 06 94
   0.411471 1  202             Rx   d 8 01 00 40 21 01 8D 00 CA
   0.412452 1  350             Rx   d 8 00 60 00 10 00 80 1A EA
   0.416249 1  610             Rx   d 7 52 D2 00 6E F4 FF 3B
   0.417956 1  1A1             Rx   d 8 90 85 42 90 20 4B 0A E7
   0.418169 1  726             Rx   d 8 00 00 00 00 58 00 00 00
   0.418425 1  727             Rx   d 8 00 00 FF 0F 00 00 00 00
   0.418681 1  728             Rx   d 8 00 00 00 00 00 00 00 00
   0.418895 1  729             Rx   d 8 8E 34 F8 0F F8 0F 00 00
   0.419151 1  655             Rx   d 8 02 04 55 56 65 45 02 00
   0.419791 1  1AB             Rx   d 8 B9 26 32 31 FC EB C0 00
   0.420047 1  202             Rx   d 8 01 00 40 21 01 8D 00 CA
   0.420260 1  A6              Rx   d 7 98 00 7D 0F FE 00 20
   0.420516 1  A5              Rx   d 8 00 00 B4 AF 7D DC 00 32
   0.420729 1  2B0             Rx   d 8 01 1E 3C 0A 28 00 00 00
   0.420985 1  77              Rx   d 8 45 01 76 64 00 00 00 00
   0.421113 1  600             Rx   d 2 00 00
   0.421284 1  414             Rx   d 3 F0 06 94
   0.422479 1  350             Rx   d 8 00 60 00 10 00 80 1B EB
   0.426233 1  610             Rx   d 7 52 D2 00 33 F4 FF 3B
   0.427172 1  630             Rx   d 3 01 00 24
   0.427940 1  1A1             Rx   d 8 90 85 42 B0 20 4B 0B 24
   0.429775 1  1AB             Rx   d 8 B9 26 32 31 FC EB C0 00
   0.429988 1  A6              Rx   d 7 76 01 7D 0F FE 00 20
   0.430244 1  A5              Rx   d 8 00 01 B4 AF 7D DC 00 32
   0.430457 1  2B0             Rx   d 8 01 1E 3C 0A 28 00 00 00
   0.430713 1  77              Rx   d 8 45 01 76 64 00 00 00 00
   0.430841 1  600             Rx   d 2 00 00
   0.431012 1  414             Rx   d 3 F0 06 94
   0.431225 1  202             Rx   d 8 01 00 40 21 01 8E 00 CA
   0.432463 1  350             Rx   d 8 00 60 00 10 00 80 1C EC
   0.436260 1  610             Rx   d 7 76 D2 00 33 F4 FF 3B
   0.437241 1  640             Rx   d 6 E8 D3 07 F4 E9 03
   0.437924 1  1A1             Rx   d 8 90 85 42 B0 20 4B 0C E9
   0.439545 1  726             Rx   d 8 00 00 00 00 58 00 00 00
   0.439758 1  727             Rx   d 8 00 00 FF 0F 00 00 00 00
   0.440014 1  1AB             Rx   d 8 B9 26 32 31 FC EB C0 00
   0.440228 1  A6              Rx   d 7 6D 02 7D 0F FE 00 20
   0.440441 1  A5              Rx   d 8 00 02 B4 AF 7D DC 00 32
   0.440697 1  2B0             Rx   d 8 01 1E 3C 0A 28 00 00 00
   0.440953 1  77              Rx   d 8 45 01 76 64 00 00 00 00
   0.441081 1  600             Rx   d 2 00 00
   0.441209 1  414             Rx   d 3 F0 06 94
   0.441465 1  202             Rx   d 8 01 00 40 21 01 8E 00 CA
   0.441721 1  728             Rx   d 8 00 00 00 00 00 00 00 00
   0.441934 1  729             Rx   d 8 8E 34 F8 0F F8 0F 00 00
   0.442190 1  655             Rx   d 8 02 04 55 56 65 45 02 00
   0.442489 1  350             Rx   d 8 00 60 00 10 00 80 1D ED
   0.446244 1  610             Rx   d 7 52 D2 00 F5 F3 FF 3B
   0.447950 1  1A0             Rx   d 8 04 40 00 24 00 00 09 E8
   0.448164 1  1A1             Rx   d 8 90 85 42 B0 20 4B 0D C6
   0.449742 1  1AB             Rx   d 8 B9 26 32 31 FC EB C0 00
   0.449998 1  A6              Rx   d 7 44 03 7D 0F FE 00 20
   0.450212 1  A5              Rx   d 8 00 03 B4 AF 7D DC 00 32
   0.450468 1  2B0             Rx   d 8 01 1E 3C 0A 28 00 00 00
   0.450681 1  77              Rx   d 8 45 01 76 64 00 00 00 00
   0.450852 1  600             Rx   d 2 00 00
   0.450980 1  414             Rx   d 3 F0 06 94
   0.451236 1  202             Rx   d 8 01 00 40 21 01 8D 00 CA
   0.451449 1  114             Rx   d 8 01 00 00 01 02 03 04 05
   0.452473 1  350             Rx   d 8 00 60 00 10 00 80 1E EE
   0.456270 1  610             Rx   d 7 9F D1 00 F5 F3 FF 3B
   0.457934 1  1A1             Rx   d 8 90 85 42 B0 20 4B 0E B7
   0.459811 1  1AB             Rx   d 8 B9 26 32 31 FC EB C0 00
   0.460025 1  202             Rx   d 8 01 00 40 21 01 8D 00 CA
   0.460238 1  A6              Rx   d 7 2B 04 7D 0F FE 00 20
   0.460494 1  A5              Rx   d 8 00 04 B4 AF 7D DC 00 32
   0.460750 1  2B0             Rx   d 8 01 1E 3C 0A 28 00 00 00
   0.460963 1  77              Rx   d 8 45 01 76 64 00 00 00 00
   0.461091 1  600             Rx   d 2 00 00
   0.461262 1  414             Rx   d 3 F0 06 94
   0.461518 1  726             Rx   d 8 00 00 00 00 58 00 00 00
   0.461731 1  727             Rx   d 8 00 00 FF 0F 00 00 00 00
   0.461987 1  728             Rx   d 8 00 00 00 00 00 00 00 00
   0.462243 1  729             Rx   d 8 8E 34 F8 0F F8 0F 00 00
   0.462499 1  350             Rx   d 8 00 60 00 10 00 80 1F EF
   0.462713 1  655             Rx   d 8 02 04 55 56 65 45 02 00
   0.466254 1  610             Rx   d 7 3F D3 00 33 F4 FF 3B
   0.467961 1  1A1             Rx   d 8 90 85 42 B0 20 4B 0F 98
   0.469753 1  1AB             Rx   d 8 B9 26 32 31 FC EB C0 00
   0.470009 1  A6              Rx   d 7 AB 05 7D 0F FE 00 20
   0.470222 1  A5              Rx   d 8 00 05 B4 AF 7D DC 00 32
   0.470478 1  2B0             Rx   d 8 01 1E 3C 0A 28 00 00 00
   0.470734 1  77              Rx   d 8 45 01 76 64 00 00 00 00
   0.470862 1  600             Rx   d 2 00 00
   0.470990 1  414             Rx   d 3 F0 06 94
   0.471246 1  202             Rx   d 8 01 00 40 21 01 8D 00 CA
   0.472483 1  350             Rx   d 8 00 60 00 10 00 80 10 E0
   0.476238 1  610             Rx   d 7 52 D2 00 33 F4 FF 3B
   0.477945 1  1A1             Rx   d 8 90 85 42 B0 20 4B 00 02
   0.479779 1  1AB             Rx   d 8 B9 26 32 31 FC EB C0 00
   0.480035 1  202             Rx   d 8 01 00 40 21 01 8D 00 CA
   0.480248 1  A6              Rx   d 7 3D 06 7D 0F FE 00 20
   0.480504 1  A5              Rx   d 8 00 06 B4 AF 7D DC 00 32
   0.480718 1  2B0             Rx   d 8 01 1E 3C 0A 28 00 00 00
   0.480974 1  77              Rx   d 8 45 01 76 64 00 00 00 00
   0.481102 1  600             Rx   d 2 00 00
   0.481272 1  414             Rx   d 3 F0 06 94
   0.482467 1  350             Rx   d 8 00 60 00 10 00 80 11 E1
   0.482851 1  726             Rx   d 8 00 00 00 00 58 00 00 00
   0.483107 1  727             Rx   d 8 00 00 FF 0F 00 00 00 00
   0.483363 1  728             Rx   d 8 00 00 00 00 00 00 00 00
   0.483619 1  729             Rx   d 8 8E 34 F8 0F F8 0F 00 00
   0.483832 1  655             Rx   d 8 02 04 55 56 65 45 02 00
   0.486264 1  610             Rx   d 7 52 D2 00 33 F4 FF 3B
   0.487928 1  1A1             Rx   d 8 90 85 42 B0 20 4B 01 2D
   0.489806 1  1AB             Rx   d 8 B9 26 32 31 FC EB C0 00
   0.490019 1  202             Rx   d 8 01 00 40 21 01 8D 00 CA
   0.490232 1  A6              Rx   d 7 6A 07 7D 0F FE 00 20
   0.490488 1  A5              Rx   d 8 00 07 B4 AF 7D DC 00 32
   0.490702 1  2B0             Rx   d 8 01 1E 3C 0A 28 00 00 00
   0.490958 1  77              Rx   d 8 45 01 76 64 00 00 00 00
   0.491086 1  600             Rx   d 2 00 00
   0.491256 1  414             Rx   d 3 F0 06 94
   0.492494 1  350             Rx   d 8 00 60 00 10 00 80 12 E2
   0.496248 1  610             Rx   d 7 76 D2 00 6E F4 FF 3B
   0.497955 1  1A0             Rx   d 8 04 40 00 24 00 00 0A 99
   0.498168 1  1A1             Rx   d 8 90 85 42 B0 20 4B 02 5C
   0.498424 1  5A0             Rx   d 8 0A 23 0D 00 00 00 00 00
   0.499790 1  1AB             Rx   d 8 B9 26 32 31 FC EB C0 00
   0.500046 1  202             Rx   d 8 01 00 40 21 01 8D 00 CA
   0.500259 1  A6              Rx   d 7 13 08 7D 0F FE 00 20
   0.500472 1  A5              Rx   d 8 00 08 B4 AF 7D DC 00 32
   0.500728 1  2B0             Rx   d 8 01 1E 3C 0A 28 00 00 00
   0.500984 1  77              Rx   d 8 45 01 76 64 00 00 00 00
   0.501112 1  600             Rx   d 2 00 00
   0.501240 1  414             Rx   d 3 F0 06 94
   0.502477 1  350             Rx   d 8 00 60 00 10 00 80 13 E3
   0.504397 1  726             Rx   d 8 00 00 00 00 58 00 00 00
   0.504611 1  727             Rx   d 8 00 00 FF 0F 00 00 00 00
   0.504867 1  728             Rx   d 8 00 00 00 00 00 00 00 00
   0.505123 1  729             Rx   d 8 8E 34 F8 0F F8 0F 00 00
   0.505336 1  655             Rx   d 8 02 04 55 56 65 45 02 00
   0.506232 1  610             Rx   d 7 30 D2 00 6E F4 FF 3B
   0.507939 1  1A1             Rx   d 8 90 85 42 B0 20 4B 03 73
   0.509773 1  1AB             Rx   d 8 B9 26 32 31 FC EB C0 00
   0.510029 1  202             Rx   d 8 01 00 40 21 01 8D 00 CA
   0.510243 1  A6              Rx   d 7 B5 09 7D 0F FE 00 20
   0.510499 1  A5              Rx   d 8 00 09 B4 AF 7D DC 00 32
   0.510712 1  2B0             Rx   d 8 01 1E 3C 0A 28 00 00 00
   0.510968 1  77              Rx   d 8 45 01 76 64 00 00 00 00
   0.511096 1  600             Rx   d 2 00 00
   0.511267 1  414             Rx   d 3 F0 06 94
   0.512461 1  350             Rx   d 8 00 60 00 10 00 80 14 E4
   0.516259 1  610             Rx   d 7 76 D2 00 31 F4 FF 3B
   0.517923 1  1A1             Rx   d 8 90 85 42 90 20 4B 04 52
   0.519715 1  1AB             Rx   d 8 B9 26 32 31 FC EB C0 00
   0.519928 1  A6              Rx   d 7 B1 0A 7D 0F FE 00 20
   0.520184 1  A5              Rx   d 8 00 0A B4 AF 7D DC 00 32
   0.520397 1  2B0             Rx   d 8 01 1E 3C 0A 28 00 00 00
   0.520653 1  77              Rx   d 8 45 01 76 64 00 00 00 00
   0.520781 1  600             Rx   d 2 00 00
   0.520952 1  414             Rx   d 3 F0 06 94
   0.521165 1  202             Rx   d 8 01 00 40 21 01 8D 00 CA
   0.522488 1  350             Rx   d 8 00 60 00 10 00 80 15 E5
   0.525901 1  726             Rx   d 8 00 00 00 00 58 00 00 00
   0.526114 1  727             Rx   d 8 00 00 FF 0F 00 00 00 00
   0.526370 1  728             Rx   d 8 00 00 00 00 00 00 00 00
   0.526584 1  610             Rx   d 7 52 D2 00 31 F4 FF 3B
   0.526840 1  729             Rx   d 8 8E 34 F8 0F F8 0F 00 00
   0.527053 1  655             Rx   d 8 02 04 55 56 65 45 02 00
   0.527224 1  630             Rx   d 3 01 00 24
   0.527949 1  1A1             Rx   d 8 90 85 42 B0 20 4B 05 91
   0.529784 1  1AB             Rx   d 8 B9 26 32 31 FC EB C0 00
   0.530040 1  202             Rx   d 8 01 00 40 21 01 8D 00 CA
   0.530253 1  A6              Rx   d 7 AE 0B 7D 0F FE 00 20
   0.530466 1  A5              Rx   d 8 00 0B B4 AF 7D DC 00 32
   0.530722 1  2B0             Rx   d 8 01 1E 3C 0A 28 00 00 00
   0.530978 1  77              Rx   d 8 45 01 76 64 00 00 00 00
   0.531106 1  600             Rx   d 2 00 00
   0.531234 1  414             Rx   d 3 F0 06 94
   0.532472 1  350             Rx   d 8 00 60 00 10 00 80 16 E6
   0.536269 1  610             Rx   d 7 C1 D1 00 6E F4 FF 3B
   0.537250 1  640             Rx   d 6 E8 D3 07 F4 E9 03
   0.537933 1  1A1             Rx   d 8 90 85 42 B0 20 4B 06 E0
   0.539725 1  1AB             Rx   d 8 B9 26 32 31 FC EB C0 00
   0.539938 1  A6              Rx   d 7 E9 0C 7D 0F FE 00 20
   0.540194 1  A5              Rx   d 8 00 0C B4 AF 7D DC 00 32
   0.540408 1  2B0             Rx   d 8 01 1E 3C 0A 28 00 00 00
   0.540664 1  77              Rx   d 8 45 01 76 64 00 00 00 00
   0.540792 1  600             Rx   d 2 00 00
   0.540962 1  414             Rx   d 3 F0 06 94
   0.541176 1  202             Rx   d 8 01 00 40 21 01 8D 00 CA
   0.542498 1  350             Rx   d 8 00 60 00 10 00 80 17 E7
   0.546253 1  610             Rx   d 7 FE D2 00 6E F4 FF 3B
   0.547149 1  650             Rx   d 2 4A 49
   0.547490 1  726             Rx   d 8 00 00 00 00 58 00 00 00
   0.547703 1  727             Rx   d 8 00 00 FF 0F 00 00 00 00
   0.547959 1  1A0             Rx   d 8 04 40 00 24 00 00 0B B6
   0.548173 1  1A1             Rx   d 8 90 85 42 B0 20 4B 07 CF
   0.548429 1  728             Rx   d 8 00 00 00 00 00 00 00 00
   0.548685 1  729             Rx   d 8 8E 34 F8 0F F8 0F 00 00
   0.548898 1  655             Rx   d 8 02 04 55 56 65 45 02 00
   0.549794 1  1AB             Rx   d 8 B9 26 32 31 FC EB C0 00
   0.550007 1  202             Rx   d 8 01 00 40 21 01 8C 00 CA
   0.550263 1  A6              Rx   d 7 EC 0D 7D 0F FE 00 20
   0.550477 1  A5              Rx   d 8 00 0D B4 AF 7D DC 00 32
   0.550733 1  2B0             Rx   d 8 01 1E 3C 0A 28 00 00 00
   0.550946 1  77              Rx   d 8 45 01 76 64 00 00 00 00
   0.551117 1  600             Rx   d 2 00 00
   0.551245 1  414             Rx   d 3 F0 06 94
   0.551501 1  114             Rx   d 8 01 00 00 01 02 03 04 05
   0.552482 1  350             Rx   d 8 00 60 00 10 00 80 18 E8
   0.556237 1  610             Rx   d 7 52 D2 00 31 F4 FF 3B
   0.557303 1  660             Rx   d 8 00 00 00 00 00 00 00 00
   0.557943 1  1A1             Rx   d 8 90 85 42 B0 20 4B 08 55
   0.559778 1  1AB             Rx   d 8 B9 26 32 31 FC EB C0 00
   0.559991 1  A6              Rx   d 7 71 0E 7D 0F FE 00 20
   0.560247 1  A5              Rx   d 8 00 0E B4 AF 7D DC 00 32
   0.560503 1  2B0             Rx   d 8 01 1E 3C 0A 28 00 00 00
   0.560717 1  77              Rx   d 8 45 01 76 64 00 00 00 00
   0.560845 1  600             Rx   d 2 00 00
   0.561015 1  414             Rx   d 3 F0 06 94
   0.561271 1  202             Rx   d 8 01 00 40 21 01 8C 00 CA
   0.562466 1  350             Rx   d 8 00 60 00 10 00 80 19 E9
   0.566263 1  610             Rx   d 7 30 D2 00 31 F4 FF 3B
   0.567287 1  670             Rx   d 8 00 00 00 00 00 00 00 00
   0.567927 1  1A1             Rx   d 8 90 85 42 B0 20 4B 09 7A
   0.569122 1  726             Rx   d 8 00 00 00 00 58 00 00 00
   0.569378 1  727             Rx   d 8 00 00 FF 0F 00 00 00 00
   0.569634 1  728             Rx   d 8 00 00 00 00 00 00 00 00
   0.569847 1  729             Rx   d 8 8E 34 F8 0F F8 0F 00 00
   0.570103 1  A6              Rx   d 7 EF 0F 7D 0F FE 00 20
   0.570316 1  A5              Rx   d 8 00 0F B4 AF 7D DC 00 32
   0.570572 1  2B0             Rx   d 8 01 1E 3C 0A 28 00 00 00
   0.570786 1  77              Rx   d 8 45 01 76 64 00 00 00 00
   0.570956 1  600             Rx   d 2 00 00
   0.571084 1  414             Rx   d 3 F0 06 94
   0.571340 1  1AB             Rx   d 8 B9 26 32 31 FC EB C0 00
   0.571554 1  202             Rx   d 8 01 00 40 21 01 8D 00 CA
   0.571767 1  655             Rx   d 8 02 04 55 56 65 45 02 00
   0.572492 1  350             Rx   d 8 00 60 00 10 00 80 1A EA
   0.576247 1  610             Rx   d 7 52 D2 00 F5 F3 FF 3B
   0.577954 1  1A1             Rx   d 8 90 85 42 B0 20 4B 0A 0B
   0.579788 1  1AB             Rx   d 8 B9 26 32 31 FC EB C0 00
   0.580002 1  202             Rx   d 8 01 00 40 21 01 8D 00 CA
   0.580258 1  A6              Rx   d 7 98 00 7D 0F FE 00 20
   0.580471 1  A5              Rx   d 8 00 00 B4 AF 7D DC 00 32
   0.580727 1  2B0             Rx   d 8 01 1E 3C 0A 28 00 00 00
   0.580940 1  77              Rx   d 8 45 01 76 64 00 00 00 00
   0.581111 1  600             Rx   d 2 00 00
   0.581239 1  414             Rx   d 3 F0 06 94
   0.582476 1  350             Rx   d 8 00 60 00 10 00 80 1B EB
   0.586231 1  610             Rx   d 7 52 D2 00 F5 F3 FF 3B
   0.587937 1  1A1             Rx   d 8 90 85 42 B0 20 4B 0B 24
   0.589772 1  1AB             Rx   d 8 B9 26 32 31 FC EB C0 00
   0.590028 1  202             Rx   d 8 01 00 40 21 01 8D 00 CA
   0.590241 1  A6              Rx   d 7 76 01 7D 0F FE 00 20
   0.590455 1  A5              Rx   d 8 00 01 B4 AF 7D DC 00 32
   0.590711 1  2B0             Rx   d 8 01 1E 3C 0A 28 00 00 00
   0.590967 1  77              Rx   d 8 45 01 76 64 00 00 00 00
   0.591095 1  600             Rx   d 2 00 00
   0.591223 1  414             Rx   d 3 F0 06 94
   0.591479 1  726             Rx   d 8 00 00 00 00 58 00 00 00
   0.591735 1  727             Rx   d 8 00 00 F6 0F 00 00 00 00
   0.591991 1  728             Rx   d 8 00 00 00 00 00 00 00 00
   0.592204 1  729             Rx   d 8 8E 34 F7 0F F8 0F 00 00
   0.592460 1  655             Rx   d 8 02 00 55 56 65 45 02 00
   0.592673 1  350             Rx   d 8 00 60 00 10 00 80 1C EC
   0.596257 1  610             Rx   d 7 55 D2 00 6E F4 FF 3B
   0.597964 1  1A0             Rx   d 8 04 40 00 24 00 00 0C 7B
   0.598177 1  1A1             Rx   d 8 90 85 42 B0 20 4B 0C E9
   0.598433 1  5A0             Rx   d 8 0A 23 0D 00 00 00 00 00
   0.599799 1  1AB             Rx   d 8 B9 26 32 31 FC EB C0 00
   0.600055 1  202             Rx   d 8 01 00 40 21 01 8D 00 CA
   0.600268 1  A6              Rx   d 7 6D 02 7D 0F FE 00 20
   0.600481 1  A5              Rx   d 8 00 02 B4 AF 7D DC 00 32
   0.600737 1  2B0             Rx   d 8 01 1E 3C 0A 28 00 00 00
   0.600951 1  77              Rx   d 8 45 01 76 64 00 00 00 00
   0.601121 1  600             Rx   d 2 00 00
   0.601249 1  414             Rx   d 3 F0 06 94
   0.602487 1  350             Rx   d 8 00 60 00 10 00 80 1D ED
   0.606241 1  610             Rx   d 7 52 D2 00 6E F4 FF 3B
   0.607948 1  1A1             Rx   d 8 90 85 42 B0 20 4B 0D C6
   0.609697 1  1AB             Rx   d 8 B9 26 32 31 FC EB C0 00
   0.609910 1  A6              Rx   d 7 44 03 7D 0F FE 00 20
   0.610166 1  A5              Rx   d 8 00 03 B4 AF 7D DC 00 32
   0.610380 1  2B0             Rx   d 8 01 1E 3C 0A 28 00 00 00
   0.610636 1  77              Rx   d 8 45 01 76 64 00 00 00 00
   0.610764 1  600             Rx   d 2 00 00
   0.610934 1  414             Rx   d 3 F0 06 94
   0.611148 1  202             Rx   d 8 01 00 40 21 01 8E 00 CA
   0.612470 1  350             Rx   d 8 00 60 00 10 00 80 1E EE
   0.613196 1  726             Rx   d 8 00 00 00 00 58 00 00 00
   0.613409 1  727             Rx   d 8 00 00 F6 0F 00 00 00 00
   0.613665 1  728             Rx   d 8 00 00 00 00 00 00 00 00
   0.613921 1  729             Rx   d 8 5E 34 F7 0F FF 0F 00 00
   0.614134 1  655             Rx   d 8 02 00 55 56 65 45 02 00
   0.616225 1  610             Rx   d 7 9D D1 00 6E F4 FF 3B
   0.617932 1  1A1             Rx   d 8 90 85 42 B0 20 4B 0E B7
   0.619724 1  1AB             Rx   d 8 B9 26 32 31 FC EB C0 00
   0.619937 1  A6              Rx   d 7 2B 04 7D 0F FE 00 20
   0.620193 1  A5              Rx   d 8 00 04 B4 AF 7D DC 00 32
   0.620449 1  2B0             Rx   d 8 01 1E 3C 0A 28 00 00 00
   0.620662 1  77              Rx   d 8 45 01 76 64 00 00 00 00
   0.620790 1  600             Rx   d 2 00 00
   0.620961 1  414             Rx   d 3 F0 06 94
   0.621217 1  202             Rx   d 8 01 00 40 21 01 8D 00 CA
   0.622497 1  350             Rx   d 8 00 60 00 10 00 80 1F EF
   0.626252 1  610             Rx   d 7 FB D2 00 6E F4 FF 3B
   0.627190 1  630             Rx   d 3 01 00 24
   0.627958 1  1A1             Rx   d 8 90 85 42 B0 20 4B 0F 98
   0.629750 1  1AB             Rx   d 8 B9 26 32 31 FC EB C0 00
   0.630006 1  202             Rx   d 8 01 00 40 21 01 8D 00 CA
   0.630219 1  A6              Rx   d 7 AB 05 7D 0F FE 00 20
   0.630475 1  A5              Rx   d 8 00 05 B4 AF 7D DC 00 32
   0.630689 1  2B0             Rx   d 8 01 1E 3C 0A 28 00 00 00
   0.630945 1  77              Rx   d 8 45 01 76 64 00 00 00 00
   0.631073 1  600             Rx   d 2 00 00
   0.631243 1  414             Rx   d 3 F0 06 94
   0.632481 1  350             Rx   d 8 00 60 00 10 00 80 10 E0
   0.634742 1  726             Rx   d 8 00 00 00 00 58 00 00 00
   0.634998 1  727             Rx   d 8 00 00 F6 0F 00 00 00 00
   0.635254 1  728             Rx   d 8 00 00 00 00 00 00 00 00
   0.635467 1  729             Rx   d 8 5E 34 F7 0F FF 0F 00 00
   0.635681 1  655             Rx   d 8 02 00 55 56 65 45 02 00
   0.636235 1  610             Rx   d 7 30 D2 00 33 F4 FF 3B
   0.637217 1  640             Rx   d 6 E8 D3 07 F4 E9 03
   0.637942 1  1A1             Rx   d 8 90 85 42 B0 20 4B 00 02
   0.639777 1  1AB             Rx   d 8 B9 26 32 31 FC EB C0 00
   0.639990 1  202             Rx   d 8 01 00 40 21 01 8E 00 CA
   0.640246 1  A6              Rx   d 7 3D 06 7D 0F FE 00 20
   0.640459 1  A5              Rx   d 8 00 06 B4 AF 7D DC 00 32
   0.640715 1  2B0             Rx   d 8 01 1E 3C 0A 28 00 00 00
   0.640929 1  77              Rx   d 8 45 01 76 64 00 00 00 00
   0.641099 1  600             Rx   d 2 00 00
   0.641227 1  414             Rx   d 3 F0 06 94
   0.642465 1  350             Rx   d 8 00 60 00 10 00 80 11 E1
   0.646262 1  610             Rx   d 7 55 D2 00 33 F4 FF 3B
   0.647969 1  1A0             Rx   d 8 04 40 00 24 00 00 0D 54
   0.648182 1  1A1             Rx   d 8 90 85 42 B0 20 4B 01 2D
   0.649761 1  1AB             Rx   d 8 B9 26 32 31 FC EB C0 00
   0.650017 1  202             Rx   d 8 01 00 40 21 01 8E 00 CA
   0.650230 1  A6              Rx   d 7 6A 07 7D 0F FE 00 20
   0.650486 1  A5              Rx   d 8 00 07 B4 AF 7D DC 00 32
   0.650699 1  2B0             Rx   d 8 01 1E 3C 0A 28 00 00 00
   0.650955 1  77              Rx   d 8 45 01 76 64 00 00 00 00
   0.651083 1  600             Rx   d 2 00 00
   0.651254 1  414             Rx   d 3 F0 06 94
   0.651467 1  114             Rx   d 8 01 00 00 01 02 03 04 05
   0.652491 1  350             Rx   d 8 00 60 00 10 00 80 12 E2
   0.656246 1  726             Rx   d 8 00 00 00 00 58 00 00 00
   0.656459 1  610             Rx   d 7 55 D2 00 F5 F3 FF 3B
   0.656715 1  727             Rx   d 8 00 00 F6 0F 00 00 00 00
   0.656971 1  728             Rx   d 8 00 00 00 00 00 00 00 00
   0.657184 1  729             Rx   d 8 5E 34 F7 0F FF 0F 00 00
   0.657440 1  655             Rx   d 8 02 00 55 56 65 45 02 00
   0.657952 1  1A1             Rx   d 8 90 85 42 B0 20 4B 02 5C
   0.659787 1  1AB             Rx   d 8 B9 26 32 31 FC EB C0 00
   0.660000 1  202             Rx   d 8 01 00 40 21 01 8D 00 CA
   0.660214 1  A6              Rx   d 7 13 08 7D 0F FE 00 20
   0.660470 1  A5              Rx   d 8 00 08 B4 AF 7D DC 00 32
   0.660683 1  2B0             Rx   d 8 01 1E 3C 0A 28 00 00 00
   0.660939 1  77              Rx   d 8 45 01 76 64 00 00 00 00
   0.661067 1  600             Rx   d 2 00 00
   0.661238 1  414             Rx   d 3 F0 06 94
   0.662475 1  350             Rx   d 8 00 60 00 10 00 80 13 E3
   0.666230 1  610             Rx   d 7 52 D2 00 F5 F3 FF 3B
   0.667936 1  1A1             Rx   d 8 90 85 42 B0 20 4B 03 73
   0.669771 1  1AB             Rx   d 8 B9 26 32 31 FC EB C0 00
   0.669984 1  202             Rx   d 8 01 00 40 21 01 8D 00 CA
   0.670198 1  A6              Rx   d 7 B5 09 7D 0F FE 00 20
   0.670454 1  A5              Rx   d 8 00 09 B4 AF 7D DC 00 32
   0.670710 1  2B0             Rx   d 8 01 1E 3C 0A 28 00 00 00
   0.670923 1  77              Rx   d 8 45 01 76 64 00 00 00 00
   0.671051 1  600             Rx   d 2 00 00
   0.671222 1  414             Rx   d 3 F0 06 94
   0.672501 1  350             Rx   d 8 00 60 00 10 00 80 14 E4
   0.676256 1  610             Rx   d 7 76 D2 00 33 F4 FF 3B
   0.677963 1  1A1             Rx   d 8 90 85 42 B0 20 4B 04 BE
   0.678176 1  726             Rx   d 8 00 00 00 00 58 00 00 00
   0.678432 1  727             Rx   d 8 00 00 F6 0F 00 00 00 00
   0.678688 1  728             Rx   d 8 00 00 00 00 00 00 00 00
   0.678901 1  729             Rx   d 8 5E 34 F7 0F FF 0F 00 00
   0.679157 1  655             Rx   d 8 02 00 55 56 65 45 02 00
   0.679755 1  1AB             Rx   d 8 B9 26 32 31 FC EB C0 00
   0.680011 1  202             Rx   d 8 01 00 40 21 01 8E 00 CA
   0.680224 1  A6              Rx   d 7 B1 0A 7D 0F FE 00 20
   0.680437 1  A5              Rx   d 8 00 0A B4 AF 7D DC 00 32
   0.680693 1  2B0             Rx   d 8 01 1E 3C 0A 28 00 00 00
   0.680949 1  77              Rx   d 8 45 01 76 64 00 00 00 00
   0.681077 1  600             Rx   d 2 00 00
   0.681205 1  414             Rx   d 3 F0 06 94
   0.682485 1  350             Rx   d 8 00 60 00 10 00 80 15 E5
   0.686240 1  610             Rx   d 7 52 D2 00 33 F4 FF 3B
   0.687947 1  1A1             Rx   d 8 90 85 42 B0 20 4B 05 91
   0.689739 1  1AB             Rx   d 8 B9 26 32 31 FC EB C0 00
   0.689995 1  202             Rx   d 8 01 00 40 21 01 8D 00 CA
   0.690208 1  A6              Rx   d 7 AE 0B 7D 0F FE 00 20
   0.690464 1  A5              Rx   d 8 00 0B B4 AF 7D DC 00 32
   0.690677 1  2B0             Rx   d 8 01 1E 3C 0A 28 00 00 00
   0.690933 1  77              Rx   d 8 45 01 76 64 00 00 00 00
   0.691061 1  600             Rx   d 2 00 00
   0.691232 1  414             Rx   d 3 F0 06 94
   0.692469 1  350             Rx   d 8 00 60 00 10 00 80 16 E6
   0.696224 1  610             Rx   d 7 9D D1 00 33 F4 FF 3B
   0.697973 1  1A0             Rx   d 8 04 40 00 24 00 00 0E 25
   0.698186 1  1A1             Rx   d 8 90 85 42 B0 20 4B 06 E0
   0.698442 1  5A0             Rx   d 8 0A 23 0D 00 00 00 00 00
   0.699680 1  726             Rx   d 8 00 00 00 00 58 00 00 00
   0.699936 1  1AB             Rx   d 8 B9 26 32 31 FC EB C0 00
   0.700149 1  A6              Rx   d 7 E9 0C 7D 0F FE 00 20
   0.700362 1  A5              Rx   d 8 00 0C B4 AF 7D DC 00 32
   0.700618 1  2B0             Rx   d 8 01 1E 3C 0A 28 00 00 00
   0.700874 1  77              Rx   d 8 45 01 76 64 00 00 00 00
   0.701002 1  600             Rx   d 2 00 00
   0.701130 1  414             Rx   d 3 F0 06 94
   0.701386 1  202             Rx   d 8 01 00 40 21 01 8D 00 CA
   0.701642 1  727             Rx   d 8 00 00 F6 0F 00 00 00 00
   0.701898 1  728             Rx   d 8 00 00 00 00 00 00 00 00
   0.702112 1  729             Rx   d 8 5E 34 F7 0F FF 0F 00 00
   0.702368 1  655             Rx   d 8 02 00 55 56 65 45 02 00
   0.702581 1  350             Rx   d 8 00 60 00 10 00 80 17 E7
   0.706250 1  610             Rx   d 7 52 D2 00 6E F4 FF 3B
   0.707957 1  1A1             Rx   d 8 90 85 42 B0 20 4B 07 CF
   0.709706 1  1AB             Rx   d 8 B9 26 32 31 FC EB C0 00
   0.709920 1  A6              Rx   d 7 EC 0D 7D 0F FE 00 20
   0.710176 1  A5              Rx   d 8 00 0D B4 AF 7D DC 00 32
   0.710432 1  2B0             Rx   d 8 01 1E 3C 0A 28 00 00 00
   0.710645 1  77              Rx   d 8 45 01 76 64 00 00 00 00
   0.710773 1  600             Rx   d 2 00 00
   0.710944 1  414             Rx   d 3 F0 06 94
   0.711200 1  202             Rx   d 8 01 00 40 21 01 8D 00 CA
   0.712480 1  350             Rx   d 8 00 60 00 10 00 80 18 E8
   0.716234 1  610             Rx   d 7 52 D2 00 6E F4 FF 3B
   0.717941 1  1A1             Rx   d 8 90 85 42 B0 20 4B 08 55
   0.719690 1  1AB             Rx   d 8 B9 26 32 31 FC EB C0 00
   0.719946 1  A6              Rx   d 7 71 0E 7D 0F FE 00 20
   0.720159 1  A5              Rx   d 8 00 0E B4 AF 7D DC 00 32
   0.720415 1  2B0             Rx   d 8 01 1E 3C 0A 28 00 00 00
   0.720671 1  77              Rx   d 8 45 01 76 64 00 00 00 00
   0.720799 1  600             Rx   d 2 00 00
   0.720927 1  414             Rx   d 3 F0 06 94
   0.721183 1  202             Rx   d 8 01 00 40 21 01 8D 00 CA
   0.722463 1  350             Rx   d 8 00 60 00 10 00 80 19 E9
   0.723018 1  726             Rx   d 8 00 00 00 00 58 00 00 00
   0.723274 1  727             Rx   d 8 00 00 F6 0F 00 00 00 00
   0.723530 1  728             Rx   d 8 00 00 00 00 00 00 00 00
   0.723743 1  729             Rx   d 8 5E 34 F7 0F FF 0F 00 00
   0.723999 1  655             Rx   d 8 02 00 55 56 65 45 02 00
   0.726261 1  610             Rx   d 7 76 D2 00 F5 F3 FF 3B
   0.727157 1  630             Rx   d 3 01 00 24
   0.727925 1  1A1             Rx   d 8 90 85 42 B0 20 4B 09 7A
   0.729759 1  1AB             Rx   d 8 B9 26 32 31 FC EB C0 00
   0.730015 1  202             Rx   d 8 01 00 40 21 01 8D 00 CA
   0.730229 1  A6              Rx   d 7 EF 0F 7D 0F FE 00 20
   0.730485 1  A5              Rx   d 8 00 0F B4 AF 7D DC 00 32
   0.730698 1  2B0             Rx   d 8 01 1E 3C 0A 28 00 00 00
   0.730954 1  77              Rx   d 8 45 01 76 64 00 00 00 00
   0.731082 1  600             Rx   d 2 00 00
   0.731253 1  414             Rx   d 3 F0 06 94
   0.732490 1  350             Rx   d 8 00 60 00 10 00 80 1A EA
   0.736244 1  610             Rx   d 7 2E D2 00 F5 F3 FF 3B
   0.737226 1  640             Rx   d 6 E8 D3 07 F4 E9 03
   0.737951 1  1A1             Rx   d 8 90 85 42 B0 20 4B 0A 0B
   0.739743 1  1AB             Rx   d 8 B9 26 32 31 FC EB C0 00
   0.739999 1  202             Rx   d 8 01 00 40 21 01 8D 00 CA
   0.740212 1  A6              Rx   d 7 98 00 7D 0F FE 00 20
   0.740468 1  A5              Rx   d 8 00 00 B4 AF 7D DC 00 32
   0.740682 1  2B0             Rx   d 8 01 1E 3C 0A 28 00 00 00
   0.740938 1  77              Rx   d 8 45 01 76 64 00 00 00 00
   0.741066 1  600             Rx   d 2 00 00
   0.741236 1  414             Rx   d 3 F0 06 94
   0.742474 1  350             Rx   d 8 00 60 00 10 00 80 1B EB
   0.744735 1  726             Rx   d 8 00 00 00 00 58 00 00 00
   0.744991 1  727             Rx   d 8 00 00 F6 0F 00 00 00 00
   0.745247 1  728             Rx   d 8 00 00 00 00 00 00 00 00
   0.745460 1  729             Rx   d 8 5E 34 F7 0F FF 0F 00 00
   0.745716 1  655             Rx   d 8 02 00 55 56 65 45 02 00
   0.746228 1  610             Rx   d 7 76 D2 00 33 F4 FF 3B
   0.747935 1  1A0             Rx   d 8 04 40 00 24 00 00 0F 0A
   0.748191 1  1A1             Rx   d 8 90 85 42 B0 20 4B 0B 24
   0.749770 1  1AB             Rx   d 8 B9 26 32 31 FC EB C0 00
   0.750026 1  202             Rx   d 8 01 00 40 21 01 8D 00 CA
   0.750239 1  A6              Rx   d 7 76 01 7D 0F FE 00 20
   0.750452 1  A5              Rx   d 8 00 01 B4 AF 7D DC 00 32
   0.750708 1  2B0             Rx   d 8 01 1E 3C 0A 28 00 00 00
   0.750964 1  77              Rx   d 8 45 01 76 64 00 00 00 00
   0.751092 1  600             Rx   d 2 00 00
   0.751220 1  414             Rx   d 3 F0 06 94
   0.751476 1  114             Rx   d 8 01 00 00 01 02 03 04 05
   0.752500 1  350             Rx   d 8 00 60 00 10 00 80 1C EC
   0.756255 1  610             Rx   d 7 52 D2 00 33 F4 FF 3B
   0.757919 1  1A1             Rx   d 8 90 85 42 B0 20 4B 0C E9
   0.759753 1  1AB             Rx   d 8 B9 26 32 31 FC EB C0 00
   0.759967 1  202             Rx   d 8 01 00 40 21 01 8D 00 CA
   0.760223 1  A6              Rx   d 7 6D 02 7D 0F FE 00 20
   0.760436 1  A5              Rx   d 8 00 02 B4 AF 7D DC 00 32
   0.760692 1  2B0             Rx   d 8 01 1E 3C 0A 28 00 00 00
   0.760905 1  77              Rx   d 8 45 01 76 64 00 00 00 00
   0.761076 1  600             Rx   d 2 00 00
   0.761204 1  414             Rx   d 3 F0 06 94
   0.762484 1  350             Rx   d 8 00 60 00 10 00 80 1D ED
   0.766239 1  610             Rx   d 7 76 D2 00 6E F4 FF 3B
   0.766495 1  726             Rx   d 8 00 00 00 00 58 00 00 00
   0.766708 1  727             Rx   d 8 00 00 FD 0F 00 00 00 00
   0.766964 1  728             Rx   d 8 00 00 00 00 00 00 00 00
   0.767220 1  729             Rx   d 8 5E 34 FF 0F FF 0F 00 00
   0.767433 1  655             Rx   d 8 02 04 55 56 65 45 02 00
   0.767945 1  1A1             Rx   d 8 90 85 42 B0 20 4B 0D C6
   0.769780 1  1AB             Rx   d 8 B9 26 32 31 FC EB C0 00
   0.769993 1  202             Rx   d 8 01 00 40 21 01 8D 00 CA
   0.770207 1  A6              Rx   d 7 44 03 7D 0F FE 00 20
   0.770463 1  A5              Rx   d 8 00 03 B4 AF 7D DC 00 32
   0.770676 1  2B0             Rx   d 8 01 1E 3C 0A 28 00 00 00
   0.770932 1  77              Rx   d 8 45 01 76 64 00 00 00 00
   0.771060 1  600             Rx   d 2 00 00
   0.771231 1  414             Rx   d 3 F0 06 94
   0.772511 1  350             Rx   d 8 00 60 00 10 00 80 1E EE
   0.776223 1  610             Rx   d 7 7B D1 00 6E F4 FF 3B
   0.777929 1  1A1             Rx   d 8 90 85 42 B0 20 4B 0E B7
   0.779764 1  1AB             Rx   d 8 B9 26 32 31 FC EB C0 00
   0.779977 1  202             Rx   d 8 01 00 40 21 01 8D 00 CA
   0.780190 1  A6              Rx   d 7 2B 04 7D 0F FE 00 20
   0.780446 1  A5              Rx   d 8 00 04 B4 AF 7D DC 00 32
   0.780702 1  2B0             Rx   d 8 01 1E 3C 0A 28 00 00 00
   0.780916 1  77              Rx   d 8 45 01 76 64 00 00 00 00
   0.781044 1  600             Rx   d 2 00 00
   0.781214 1  414             Rx   d 3 F0 06 94
   0.782494 1  350             Rx   d 8 00 60 00 10 00 80 1F EF
   0.786249 1  610             Rx   d 7 30 D2 00 F5 F3 FF 3B
   0.787956 1  1A1             Rx   d 8 90 85 42 B0 20 4B 0F 98
   0.788169 1  726             Rx   d 8 00 00 00 00 58 00 00 00
   0.788425 1  727             Rx   d 8 00 00 FD 0F 00 00 00 00
   0.788681 1  728             Rx   d 8 00 00 00 00 00 00 00 00
   0.788894 1  729             Rx   d 8 6E 34 FF 0F FF 0F 00 00
   0.789150 1  655             Rx   d 8 02 04 55 56 65 45 02 00
   0.789705 1  1AB             Rx   d 8 B9 26 32 31 FC EB C0 00
   0.789918 1  A6              Rx   d 7 AB 05 7D 0F FE 00 20
   0.790174 1  A5              Rx   d 8 00 05 B4 AF 7D DC 00 32
   0.790388 1  2B0             Rx   d 8 01 1E 3C 0A 28 00 00 00
   0.790644 1  77              Rx   d 8 45 01 76 64 00 00 00 00
   0.790772 1  600             Rx   d 2 00 00
   0.790942 1  414             Rx   d 3 F0 06 94
   0.791156 1  202             Rx   d 8 01 00 40 21 01 8D 00 CA
   0.792478 1  350             Rx   d 8 00 60 00 10 00 80 10 E0
   0.796233 1  610             Rx   d 7 52 D2 00 F5 F3 FF 3B
   0.797940 1  1A0             Rx   d 8 04 40 00 24 00 00 00 90
   0.798196 1  1A1             Rx   d 8 90 85 42 B0 20 4B 00 02
   0.798409 1  5A0             Rx   d 8 0A 23 0D 00 00 00 00 00
   0.799732 1  1AB             Rx   d 8 B9 26 32 31 FC EB C0 00
   0.799988 1  202             Rx   d 8 01 00 40 21 01 8D 00 CA
   0.800201 1  A6              Rx   d 7 3D 06 7D 0F FE 00 20
   0.800414 1  A5              Rx   d 8 00 06 B4 AF 7D DC 00 32
   0.800670 1  2B0             Rx   d 8 01 1E 3C 0A 28 00 00 00
   0.800926 1  77              Rx   d 8 45 01 76 64 00 00 00 00
   0.801054 1  600             Rx   d 2 00 00
   0.801182 1  414             Rx   d 3 F0 06 94
   0.802462 1  350             Rx   d 8 00 60 00 10 00 80 11 E1
   0.806217 1  610             Rx   d 7 52 D2 00 6E F4 FF 3B
   0.807923 1  1A1             Rx   d 8 90 85 42 B0 20 4B 01 2D
   0.809673 1  1AB             Rx   d 8 B9 26 32 31 FC EB C0 00
   0.809929 1  726             Rx   d 8 00 00 00 00 58 00 00 00
   0.810142 1  A6              Rx   d 7 6A 07 7D 0F FE 00 20
   0.810398 1  A5              Rx   d 8 00 07 B4 AF 7D DC 00 32
   0.810611 1  2B0             Rx   d 8 01 1E 3C 0A 28 00 00 00
   0.810867 1  77              Rx   d 8 45 01 76 64 00 00 00 00
   0.810995 1  600             Rx   d 2 00 00
   0.811166 1  414             Rx   d 3 F0 06 94
   0.811379 1  202             Rx   d 8 01 00 40 21 01 8D 00 CA
   0.811635 1  727             Rx   d 8 00 00 FD 0F 00 00 00 00
   0.811891 1  728             Rx   d 8 00 00 00 00 00 00 00 00
   0.812105 1  729             Rx   d 8 6E 34 FF 0F FF 0F 00 00
   0.812361 1  655             Rx   d 8 02 04 55 56 65 45 02 00
   0.812574 1  350             Rx   d 8 00 60 00 10 00 80 12 E2
   0.816243 1  610             Rx   d 7 52 D2 00 6E F4 FF 3B
   0.817950 1  1A1             Rx   d 8 90 85 42 B0 20 4B 02 5C
   0.819742 1  1AB             Rx   d 8 B9 26 32 31 FC EB C0 00
   0.819998 1  202             Rx   d 8 01 00 40 21 01 8E 00 CA
   0.820211 1  A6              Rx   d 7 13 08 7D 0F FE 00 20
   0.820467 1  A5              Rx   d 8 00 08 B4 AF 7D DC 00 32
   0.820681 1  2B0             Rx   d 8 01 1E 3C 0A 28 00 00 00
   0.820937 1  77              Rx   d 8 45 01 76 64 00 00 00 00
   0.821065 1  600             Rx   d 2 00 00
   0.821235 1  414             Rx   d 3 F0 06 94
   0.822472 1  350             Rx   d 8 00 60 00 10 00 80 13 E3
   0.826227 1  610             Rx   d 7 52 D2 00 6E F4 FF 3B
   0.827166 1  630             Rx   d 3 01 00 24
   0.827934 1  1A1             Rx   d 8 90 85 42 B0 20 4B 03 73
   0.829768 1  1AB             Rx   d 8 B9 26 32 31 FC EB C0 00
   0.829982 1  202             Rx   d 8 01 00 40 21 01 8E 00 CA
   0.830238 1  A6              Rx   d 7 B5 09 7D 0F FE 00 20
   0.830451 1  A5              Rx   d 8 00 09 B4 AF 7D DC 00 32
   0.830707 1  2B0             Rx   d 8 01 1E 3C 0A 28 00 00 00
   0.830920 1  77              Rx   d 8 45 01 76 64 00 00 00 00
   0.831091 1  600             Rx   d 2 00 00
   0.831219 1  414             Rx   d 3 F0 06 94
   0.832499 1  350             Rx   d 8 00 60 00 10 00 80 14 E4
   0.832926 1  726             Rx   d 8 00 00 00 00 58 00 00 00
   0.833182 1  727             Rx   d 8 00 00 FD 0F 00 00 00 00
   0.833438 1  728             Rx   d 8 00 00 00 00 00 00 00 00
   0.833651 1  729             Rx   d 8 6E 34 FF 0F FF 0F 00 00
   0.833907 1  655             Rx   d 8 02 04 55 56 65 45 02 00
   0.836254 1  610             Rx   d 7 96 D2 00 6E F4 FF 3B
   0.837235 1  640             Rx   d 6 E8 D3 07 F4 E9 03
   0.837960 1  1A1             Rx   d 8 90 85 42 B0 20 4B 04 BE
   0.839752 1  1AB             Rx   d 8 B9 26 32 31 FC EB C0 00
   0.840008 1  202             Rx   d 8 01 00 40 21 01 8E 00 CA
   0.840222 1  A6              Rx   d 7 B1 0A 7D 0F FE 00 20
   0.840435 1  A5              Rx   d 8 00 0A B4 AF 7D DC 00 32
   0.840691 1  2B0             Rx   d 8 01 1E 3C 0A 28 00 00 00
   0.840947 1  77              Rx   d 8 45 01 76 64 00 00 00 00
   0.841075 1  600             Rx   d 2 00 00
   0.841203 1  414             Rx   d 3 F0 06 94
   0.842483 1  350             Rx   d 8 00 60 00 10 00 80 15 E5
   0.846237 1  610             Rx   d 7 52 D2 00 33 F4 FF 3B
   0.847944 1  1A0             Rx   d 8 04 40 00 24 00 00 01 BF
   0.848200 1  1A1             Rx   d 8 90 85 42 B0 20 4B 05 91
   0.849736 1  1AB             Rx   d 8 B9 26 32 31 FC EB C0 00
   0.849992 1  202             Rx   d 8 01 00 40 21 01 8E 00 CA
   0.850205 1  A6              Rx   d 7 AE 0B 7D 0F FE 00 20
   0.850461 1  A5              Rx   d 8 00 0B B4 AF 7D DC 00 32
   0.850675 1  2B0             Rx   d 8 01 1E 3C 0A 28 00 00 00
   0.850931 1  77              Rx   d 8 45 01 76 64 00 00 00 00
   0.851059 1  600             Rx   d 2 00 00
   0.851229 1  414             Rx   d 3 F0 06 94
   0.851443 1  114             Rx   d 8 01 00 00 01 02 03 04 05
   0.852467 1  350             Rx   d 8 00 60 00 10 00 80 16 E6
   0.854472 1  726             Rx   d 8 00 00 00 00 58 00 00 00
   0.854685 1  727             Rx   d 8 00 00 FD 0F 00 00 00 00
   0.854941 1  728             Rx   d 8 00 00 00 00 00 00 00 00
   0.855197 1  729             Rx   d 8 6E 34 FF 0F FF 0F 00 00
   0.855411 1  655             Rx   d 8 02 04 55 56 65 45 02 00
   0.856221 1  610             Rx   d 7 E5 D1 00 33 F4 FF 3B
   0.857928 1  1A1             Rx   d 8 90 85 42 B0 20 4B 06 E0
   0.859763 1  1AB             Rx   d 8 B9 26 32 31 FC EB C0 00
   0.859976 1  202             Rx   d 8 01 00 40 21 01 8E 00 CA
   0.860232 1  A6              Rx   d 7 E9 0C 7D 0F FE 00 20
   0.860445 1  A5              Rx   d 8 00 0C B4 AF 7D DC 00 32
   0.860701 1  2B0             Rx   d 8 01 1E 3C 0A 28 00 00 00
   0.860915 1  77              Rx   d 8 45 01 76 64 00 00 00 00
   0.861043 1  600             Rx   d 2 00 00
   0.861213 1  414             Rx   d 3 F0 06 94
   0.862493 1  350             Rx   d 8 00 60 00 10 00 80 17 E7
   0.866248 1  610             Rx   d 7 52 D2 00 F5 F3 FF 3B
   0.867954 1  1A1             Rx   d 8 90 85 42 B0 20 4B 07 CF
   0.869746 1  1AB             Rx   d 8 B9 26 32 31 FC EB C0 00
   0.869960 1  202             Rx   d 8 01 00 40 21 01 8E 00 CA
   0.870216 1  A6              Rx   d 7 EC 0D 7D 0F FE 00 20
   0.870429 1  A5              Rx   d 8 00 0D B4 AF 7D DC 00 32
   0.870685 1  2B0             Rx   d 8 01 1E 3C 0A 28 00 00 00
   0.870898 1  77              Rx   d 8 45 01 76 64 00 00 00 00
   0.871069 1  600             Rx   d 2 00 00
   0.871197 1  414             Rx   d 3 F0 06 94
   0.872477 1  350             Rx   d 8 00 60 00 10 00 80 18 E8
   0.875976 1  726             Rx   d 8 00 00 00 00 58 00 00 00
   0.876189 1  727             Rx   d 8 00 00 FD 0F 00 00 00 00
   0.876445 1  728             Rx   d 8 00 00 00 00 00 00 00 00
   0.876658 1  610             Rx   d 7 93 D2 00 F5 F3 FF 3B
   0.876914 1  729             Rx   d 8 6E 34 FF 0F FF 0F 00 00
   0.877128 1  655             Rx   d 8 02 04 55 56 65 45 02 00
   0.877938 1  1A1             Rx   d 8 90 85 42 B0 20 4B 08 55
   0.879730 1  1AB             Rx   d 8 B9 26 32 31 FC EB C0 00
   0.879944 1  202             Rx   d 8 01 00 40 21 01 8E 00 CA
   0.880157 1  A6              Rx   d 7 71 0E 7D 0F FE 00 20
   0.880413 1  A5              Rx   d 8 00 0E B4 AF 7D DC 00 32
   0.880669 1  2B0             Rx   d 8 01 1E 3C 0A 28 00 00 00
   0.880882 1  77              Rx   d 8 45 01 76 64 00 00 00 00
   0.881010 1  600             Rx   d 2 00 00
   0.881181 1  414             Rx   d 3 F0 06 94
   0.882504 1  350             Rx   d 8 00 60 00 10 00 80 19 E9
   0.886215 1  610             Rx   d 7 52 D2 00 33 F4 FF 3B
   0.887922 1  1A1             Rx   d 8 90 85 42 B0 20 4B 09 7A
   0.889714 1  1AB             Rx   d 8 B9 26 32 31 FC EB C0 00
   0.889927 1  202             Rx   d 8 01 00 40 21 01 8E 00 CA
   0.890183 1  A6              Rx   d 7 EF 0F 7D 0F FE 00 20
   0.890397 1  A5              Rx   d 8 00 0F B4 AF 7D DC 00 32
   0.890653 1  2B0             Rx   d 8 01 1E 3C 0A 28 00 00 00
   0.890909 1  77              Rx   d 8 45 01 76 64 00 00 00 00
   0.891037 1  600             Rx   d 2 00 00
   0.891165 1  414             Rx   d 3 F0 06 94
   0.892487 1  350             Rx   d 8 00 60 00 10 00 80 1A EA
   0.896242 1  610             Rx   d 7 30 D2 00 33 F4 FF 3B
   0.897607 1  726             Rx   d 8 00 00 00 00 58 00 00 00
   0.897863 1  727             Rx   d 8 00 00 FD 0F 00 00 00 00
   0.898119 1  1A0             Rx   d 8 04 40 00 24 00 00 02 CE
   0.898333 1  1A1             Rx   d 8 90 85 42 B0 20 4B 0A 0B
   0.898589 1  5A0             Rx   d 8 0A 23 0D 00 00 00 00 00
   0.898845 1  728             Rx   d 8 00 00 00 00 00 00 00 00
   0.899058 1  729             Rx   d 8 6E 34 FF 0F FF 0F 00 00
   0.899314 1  655             Rx   d 8 02 04 55 56 65 45 02 00
   0.899741 1  1AB             Rx   d 8 B9 26 32 31 FC EB C0 00
   0.899954 1  202             Rx   d 8 01 00 40 21 01 8D 00 CA
   0.900167 1  A6              Rx   d 7 98 00 7D 0F FE 00 20
   0.900423 1  A5              Rx   d 8 00 00 B4 AF 7D DC 00 32
   0.900637 1  2B0             Rx   d 8 01 1E 3C 0A 28 00 00 00
   0.900893 1  77              Rx   d 8 45 01 76 64 00 00 00 00
   0.901021 1  600             Rx   d 2 00 00
   0.901191 1  414             Rx   d 3 F0 06 94
   0.902471 1  350             Rx   d 8 00 60 00 10 00 80 1B EB
   0.906226 1  610             Rx   d 7 76 D2 00 6E F4 FF 3B
   0.907932 1  1A1             Rx   d 8 90 85 42 B0 20 4B 0B 24
   0.909724 1  1AB             Rx   d 8 B9 26 32 31 FC EB C0 00
   0.909980 1  202             Rx   d 8 01 00 40 21 01 8D 00 CA
   0.910194 1  A6              Rx   d 7 76 01 7D 0F FE 00 20
   0.910450 1  A5              Rx   d 8 00 01 B4 AF 7D DC 00 32
   0.910663 1  2B0             Rx   d 8 01 1E 3C 0A 28 00 00 00
   0.910919 1  77              Rx   d 8 45 01 76 64 00 00 00 00
   0.911047 1  600             Rx   d 2 00 00
   0.911218 1  414             Rx   d 3 F0 06 94
   0.912498 1  350             Rx   d 8 00 60 00 10 00 80 1C EC
   0.916252 1  610             Rx   d 7 F9 D2 00 6E F4 FF 3B
   0.917916 1  1A1             Rx   d 8 90 85 42 B0 20 4B 0C E9
   0.919282 1  726             Rx   d 8 00 00 00 00 58 00 00 00
   0.919495 1  727             Rx   d 8 00 00 FD 0F 00 00 00 00
   0.919751 1  728             Rx   d 8 00 00 00 00 00 00 00 00
   0.920007 1  1AB             Rx   d 8 B9 26 32 31 FC EB C0 00
   0.920220 1  A6              Rx   d 7 6D 02 7D 0F FE 00 20
   0.920476 1  A5              Rx   d 8 00 02 B4 AF 7D DC 00 32
   0.920690 1  2B0             Rx   d 8 01 1E 3C 0A 28 00 00 00
   0.920946 1  77              Rx   d 8 45 01 76 64 00 00 00 00
   0.921074 1  600             Rx   d 2 00 00
   0.921244 1  414             Rx   d 3 F0 06 94
   0.921458 1  202             Rx   d 8 01 00 40 21 01 8D 00 CA
   0.921714 1  729             Rx   d 8 6E 34 FF 0F FF 0F 00 00
   0.921927 1  655             Rx   d 8 02 04 55 56 65 45 02 00
   0.922482 1  350             Rx   d 8 00 60 00 10 00 80 1D ED
   0.926236 1  610             Rx   d 7 52 D2 00 6E F4 FF 3B
   0.927175 1  630             Rx   d 3 01 00 24
   0.927943 1  1A1             Rx   d 8 90 85 42 B0 20 4B 0D C6
   0.929735 1  1AB             Rx   d 8 B9 26 32 31 FC EB C0 00
   0.929991 1  202             Rx   d 8 01 00 40 21 01 8D 00 CA
   0.930204 1  A6              Rx   d 7 44 03 7D 0F FE 00 20
   0.930460 1  A5              Rx   d 8 00 03 B4 AF 7D DC 00 32
   0.930673 1  2B0             Rx   d 8 01 1E 3C 0A 28 00 00 00
   0.930929 1  77              Rx   d 8 45 01 76 64 00 00 00 00
   0.931057 1  600             Rx   d 2 00 00
   0.931228 1  414             Rx   d 3 F0 06 94
   0.932508 1  350             Rx   d 8 00 60 00 10 00 80 1E EE
   0.936220 1  610             Rx   d 7 E8 D1 00 33 F4 FF 3B
   0.937201 1  640             Rx   d 6 E8 D3 07 F4 E9 03
   0.937927 1  1A1             Rx   d 8 90 85 42 90 20 4B 0E 5B
   0.939719 1  1AB             Rx   d 8 B9 26 32 31 FC EB C0 00
   0.939975 1  202             Rx   d 8 01 00 40 21 01 8D 00 CA
   0.940188 1  A6              Rx   d 7 2B 04 7D 0F FE 00 20
   0.940444 1  A5              Rx   d 8 00 04 B4 AF 7D DC 00 32
   0.940657 1  2B0             Rx   d 8 01 1E 3C 0A 28 00 00 00
   0.940913 1  77              Rx   d 8 45 01 76 64 00 00 00 00
   0.941041 1  600             Rx   d 2 00 00
   0.941212 1  414             Rx   d 3 F0 06 94
   0.941425 1  726             Rx   d 8 00 00 00 00 58 00 00 00
   0.941681 1  727             Rx   d 8 00 00 FF 0F 00 00 00 00
   0.941937 1  728             Rx   d 8 00 00 00 00 00 00 00 00
   0.942193 1  729             Rx   d 8 6E 34 FF 0F FF 0F 00 00
   0.942407 1  655             Rx   d 8 02 04 55 56 65 45 02 00
   0.942663 1  350             Rx   d 8 00 60 00 10 00 80 1F EF
   0.946247 1  610             Rx   d 7 52 D2 00 33 F4 FF 3B
   0.947953 1  1A0             Rx   d 8 04 40 00 24 00 00 03 E1
   0.948167 1  1A1             Rx   d 8 90 85 42 B0 20 4B 0F 98
   0.949745 1  1AB             Rx   d 8 B9 26 32 31 FC EB C0 00
   0.949958 1  202             Rx   d 8 01 00 40 21 01 8D 00 CA
   0.950214 1  A6              Rx   d 7 AB 05 7D 0F FE 00 20
   0.950428 1  A5              Rx   d 8 00 05 B4 AF 7D DC 00 32
   0.950684 1  2B0             Rx   d 8 01 1E 3C 0A 28 00 00 00
   0.950897 1  77              Rx   d 8 45 01 76 64 00 00 00 00
   0.951068 1  600             Rx   d 2 00 00
   0.951196 1  414             Rx   d 3 F0 06 94
   0.951452 1  114             Rx   d 8 01 00 00 01 02 03 04 05
   0.952476 1  350             Rx   d 8 00 61 00 10 00 80 10 E1
   0.956230 1  610             Rx   d 7 52 D2 00 33 F4 FF 3B
   0.957937 1  1A1             Rx   d 8 90 85 42 B0 20 4B 00 02
   0.959729 1  1AB             Rx   d 8 B9 26 32 31 FC EB C0 00
   0.959985 1  202             Rx   d 8 01 00 40 21 01 8D 00 CA
   0.960198 1  A6              Rx   d 7 3D 06 7D 0F FE 00 20
   0.960412 1  A5              Rx   d 8 00 06 B4 AF 7D DC 00 32
   0.960668 1  2B0             Rx   d 8 01 1E 3C 0A 28 00 00 00
   0.960924 1  77              Rx   d 8 45 01 76 64 00 00 00 00
   0.961052 1  600             Rx   d 2 00 00
   0.961180 1  414             Rx   d 3 F0 06 94
   0.962502 1  350             Rx   d 8 00 60 00 10 00 80 11 E1
   0.963142 1  726             Rx   d 8 00 00 00 00 58 00 00 00
   0.963398 1  727             Rx   d 8 00 00 FF 0F 00 00 00 00
   0.963654 1  728             Rx   d 8 00 00 00 00 00 00 00 00
   0.963868 1  729             Rx   d 8 96 34 FF 0F FF 0F 00 00
   0.964081 1  655             Rx   d 8 02 04 55 56 65 45 02 00
   0.966214 1  610             Rx   d 7 52 D2 00 33 F4 FF 3B
   0.967921 1  1A1             Rx   d 8 90 85 42 B0 20 4B 01 2D
   0.969713 1  1AB             Rx   d 8 B9 26 32 31 FC EB C0 00
   0.969926 1  202             Rx   d 8 01 00 40 21 01 8D 00 CA
   0.970140 1  A6              Rx   d 7 6A 07 7D 0F FE 00 20
   0.970396 1  A5              Rx   d 8 00 07 B4 AF 7D DC 00 32
   0.970652 1  2B0             Rx   d 8 01 1E 3C 0A 28 00 00 00
   0.970865 1  77              Rx   d 8 45 01 76 64 00 00 00 00
   0.970993 1  600             Rx   d 2 00 00
   0.971163 1  414             Rx   d 3 F0 06 94
   0.972486 1  350             Rx   d 8 00 60 00 10 00 80 12 E2
   0.976241 1  610             Rx   d 7 76 D2 00 F5 F3 FF 3B
   0.977947 1  1A1             Rx   d 8 90 85 42 90 20 4B 02 B0
   0.979697 1  1AB             Rx   d 8 B9 26 32 31 FC EB C0 00
   0.979953 1  202             Rx   d 8 01 00 40 21 01 8E 00 CA
   0.980166 1  A6              Rx   d 7 13 08 7D 0F FE 00 20
   0.980379 1  A5              Rx   d 8 00 08 B4 AF 7D DC 00 32
   0.980635 1  2B0             Rx   d 8 01 1E 3C 0A 28 00 00 00
   0.980891 1  77              Rx   d 8 45 01 76 64 00 00 00 00
   0.981019 1  600             Rx   d 2 00 00
   0.981147 1  414             Rx   d 3 F0 06 94
   0.982470 1  350             Rx   d 8 00 60 00 10 00 80 13 E3
   0.984689 1  726             Rx   d 8 00 00 00 00 58 00 00 00
   0.984945 1  727             Rx   d 8 00 00 FF 0F 00 00 00 00
   0.985201 1  728             Rx   d 8 00 00 00 00 00 00 00 00
   0.985414 1  729             Rx   d 8 96 34 FF 0F FF 0F 00 00
   0.985670 1  655             Rx   d 8 02 04 55 56 65 45 02 00
   0.986225 1  610             Rx   d 7 52 D2 00 F5 F3 FF 3B
   0.987931 1  1A1             Rx   d 8 90 85 42 B0 20 4B 03 73
   0.989681 1  1AB             Rx   d 8 B9 26 32 31 FC EB C0 00
   0.989937 1  202             Rx   d 8 01 00 40 21 01 8E 00 CA
   0.990150 1  A6              Rx   d 7 B5 09 7D 0F FE 00 20
   0.990406 1  A5              Rx   d 8 00 09 B4 AF 7D DC 00 32
   0.990619 1  2B0             Rx   d 8 01 1E 3C 0A 28 00 00 00
   0.990875 1  77              Rx   d 8 45 01 76 64 00 00 00 00
   0.991003 1  600             Rx   d 2 00 00
   0.991174 1  414             Rx   d 3 F0 06 94
   0.992496 1  350             Rx   d 8 00 60 00 10 00 80 14 E4
   0.996251 1  610             Rx   d 7 FB D2 00 33 F4 FF 3B
   0.997958 1  1A0             Rx   d 8 04 40 00 24 00 00 04 2C
   0.998171 1  1A1             Rx   d 8 90 85 42 B0 20 4B 04 BE
   0.998427 1  5A0             Rx   d 8 0A 23 0D 00 00 00 00 00
   0.999704 1  1AB             Rx   d 8 B9 26 32 31 FC EB C0 00
   0.999917 1  202             Rx   d 8 01 00 40 21 01 8D 00 CA
   1.000130 1  A6              Rx   d 7 B1 0A 7D 0F FE 00 20
   1.000386 1  A5              Rx   d 8 00 0A B4 AF 7D DC 00 32
   1.000600 1  2B0             Rx   d 8 01 1E 3C 0A 28 00 00 00
   1.000856 1  77              Rx   d 8 45 01 76 64 00 00 00 00
   1.000984 1  600             Rx   d 2 00 00
   1.001154 1  414             Rx   d 3 F0 06 94
   1.002434 1  350             Rx   d 8 00 60 00 10 00 80 15 E5
   1.006146 1  726             Rx   d 8 00 00 00 00 58 00 00 00
   1.006360 1  610             Rx   d 7 30 D2 00 33 F4 FF 3B
   1.006616 1  727             Rx   d 8 00 00 FF 0F 00 00 00 00
   1.006872 1  728             Rx   d 8 00 00 00 00 00 00 00 00
   1.007085 1  729             Rx   d 8 96 34 FF 0F FF 0F 00 00
   1.007341 1  655             Rx   d 8 02 04 55 56 65 45 02 00
   1.007896 1  1A1             Rx   d 8 90 85 42 B0 20 4B 05 91
   1.009688 1  1AB             Rx   d 8 B9 26 32 31 FC EB C0 00
   1.009901 1  202             Rx   d 8 01 00 40 21 01 8D 00 CA
   1.010157 1  A6              Rx   d 7 AE 0B 7D 0F FE 00 20
   1.010370 1  A5              Rx   d 8 00 0B B4 AF 7D DC 00 32
   1.010626 1  2B0             Rx   d 8 01 1E 3C 0A 28 00 00 00
   1.010840 1  77              Rx   d 8 45 01 76 64 00 00 00 00
   1.011010 1  600             Rx   d 2 00 00
   1.011138 1  414             Rx   d 3 F0 06 94
   1.012461 1  350             Rx   d 8 00 60 00 10 00 80 16 E6
   1.016173 1  610             Rx   d 7 30 D2 00 31 F4 FF 3B
   1.017879 1  1A1             Rx   d 8 90 85 42 90 20 4B 06 0C
   1.019671 1  1AB             Rx   d 8 B9 26 32 31 FC EB C0 00
   1.019927 1  202             Rx   d 8 01 00 40 21 01 8D 00 CA
   1.020141 1  A6              Rx   d 7 E9 0C 7D 0F FE 00 20
   1.020354 1  A5              Rx   d 8 00 0C B4 AF 7D DC 00 32
   1.020610 1  2B0             Rx   d 8 01 1E 3C 0A 28 00 00 00
   1.020866 1  77              Rx   d 8 45 01 76 64 00 00 00 00
   1.020994 1  600             Rx   d 2 00 00
   1.021122 1  414             Rx   d 3 F0 06 94
   1.022445 1  350             Rx   d 8 00 60 00 10 00 80 17 E7
   1.026199 1  610             Rx   d 7 76 D2 00 31 F4 FF 3B
   1.027138 1  630             Rx   d 3 01 00 24
   1.027863 1  726             Rx   d 8 00 00 00 00 58 00 00 00
   1.028119 1  1A1             Rx   d 8 90 85 42 B0 20 4B 07 CF
   1.028333 1  727             Rx   d 8 00 00 FF 0F 00 00 00 00
   1.028589 1  728             Rx   d 8 00 00 00 00 00 00 00 00
   1.028845 1  729             Rx   d 8 96 34 FF 0F FF 0F 00 00
   1.029058 1  655             Rx   d 8 02 04 55 56 65 45 02 00
   1.029698 1  1AB             Rx   d 8 B9 26 32 31 FC EB C0 00
   1.029911 1  202             Rx   d 8 01 00 40 21 01 8D 00 CA
   1.030125 1  A6              Rx   d 7 EC 0D 7D 0F FE 00 20
   1.030381 1  A5              Rx   d 8 00 0D B4 AF 7D DC 00 32
   1.030594 1  2B0             Rx   d 8 01 1E 3C 0A 28 00 00 00
   1.030850 1  77              Rx   d 8 45 01 76 64 00 00 00 00
   1.030978 1  600             Rx   d 2 00 00
   1.031149 1  414             Rx   d 3 F0 06 94
   1.032429 1  350             Rx   d 8 00 60 00 10 00 80 18 E8
   1.036183 1  610             Rx   d 7 76 D2 00 31 F4 FF 3B
   1.037164 1  640             Rx   d 6 E8 D3 07 F4 E9 03
   1.037890 1  1A1             Rx   d 8 90 85 42 B0 20 4B 08 55
   1.039682 1  1AB             Rx   d 8 B9 26 32 31 FC EB C0 00
   1.039895 1  202             Rx   d 8 01 00 40 21 01 8D 00 CA
   1.040151 1  A6              Rx   d 7 71 0E 7D 0F FE 00 20
   1.040364 1  A5              Rx   d 8 00 0E B4 AF 7D DC 00 32
   1.040620 1  2B0             Rx   d 8 01 1E 3C 0A 28 00 00 00
   1.040834 1  77              Rx   d 8 45 01 76 64 00 00 00 00
   1.041004 1  600             Rx   d 2 00 00
   1.041132 1  414             Rx   d 3 F0 06 94
   1.042455 1  350             Rx   d 8 00 60 00 10 00 80 19 E9
   1.046167 1  610             Rx   d 7 52 D2 00 31 F4 FF 3B
   1.047916 1  1A0             Rx   d 8 04 40 00 24 00 00 05 03
   1.048130 1  1A1             Rx   d 8 90 85 42 B0 20 4B 09 7A
   1.049623 1  726             Rx   d 8 00 00 00 00 58 00 00 00
   1.049836 1  727             Rx   d 8 00 00 FF 0F 00 00 00 00
   1.050050 1  A6              Rx   d 7 EF 0F 7D 0F FE 00 20
   1.050306 1  A5              Rx   d 8 00 0F B4 AF 7D DC 00 32
   1.050562 1  2B0             Rx   d 8 01 1E 3C 0A 28 00 00 00
   1.050775 1  77              Rx   d 8 45 01 76 64 00 00 00 00
   1.050946 1  600             Rx   d 2 00 00
   1.051074 1  414             Rx   d 3 F0 06 94
   1.051330 1  1AB             Rx   d 8 B9 26 32 31 FC EB C0 00
   1.051543 1  202             Rx   d 8 01 00 40 21 01 8D 00 CA
   1.051799 1  114             Rx   d 8 01 00 00 01 02 03 04 05
   1.052055 1  728             Rx   d 8 00 00 00 00 00 00 00 00
   1.052268 1  729             Rx   d 8 96 34 FF 0F FF 0F 00 00
   1.052524 1  350             Rx   d 8 00 60 00 10 00 80 1A EA
   1.052738 1  655             Rx   d 8 02 04 55 56 65 45 02 00
   1.056193 1  610             Rx   d 7 52 D2 00 31 F4 FF 3B
   1.057900 1  1A1             Rx   d 8 90 85 42 B0 20 4B 0A 0B
   1.059649 1  1AB             Rx   d 8 B9 26 32 31 FC EB C0 00
   1.059863 1  202             Rx   d 8 01 00 40 21 01 8E 00 CA
   1.060119 1  A6              Rx   d 7 98 00 7D 0F FE 00 20
   1.060332 1  A5              Rx   d 8 00 00 B4 AF 7D DC 00 32
   1.060588 1  2B0             Rx   d 8 01 1E 3C 0A 28 00 00 00
   1.060844 1  77              Rx   d 8 45 01 76 64 00 00 00 00
   1.060972 1  600             Rx   d 2 00 00
   1.061100 1  414             Rx   d 3 F0 06 94
   1.062465 1  350             Rx   d 8 00 60 00 10 00 80 1B EB
   1.066177 1  610             Rx   d 7 9D D1 00 31 F4 FF 3B
   1.067884 1  1A1             Rx   d 8 90 85 42 B0 20 4B 0B 24
   1.069633 1  1AB             Rx   d 8 B9 26 32 31 FC EB C0 00
   1.069889 1  202             Rx   d 8 01 00 40 21 01 8E 00 CA
   1.070103 1  A6              Rx   d 7 76 01 7D 0F FE 00 20
   1.070316 1  A5              Rx   d 8 00 01 B4 AF 7D DC 00 32
   1.070572 1  2B0             Rx   d 8 01 1E 3C 0A 28 00 00 00
   1.070828 1  77              Rx   d 8 45 01 76 64 00 00 00 00
   1.070956 1  600             Rx   d 2 00 00
   1.071084 1  414             Rx   d 3 F0 06 94
   1.071340 1  726             Rx   d 8 00 00 00 00 58 00 00 00
   1.071596 1  727             Rx   d 8 00 00 FF 0F 00 00 00 00
   1.071852 1  728             Rx   d 8 00 00 00 00 00 00 00 00
   1.072065 1  729             Rx   d 8 96 34 FF 0F FF 0F 00 00
   1.072321 1  655             Rx   d 8 02 04 55 56 65 45 02 00
   1.072535 1  350             Rx   d 8 00 60 00 10 00 80 1C EC
   1.076161 1  610             Rx   d 7 A7 D3 00 33 F4 FF 3B
   1.077910 1  1A1             Rx   d 8 90 85 42 B0 20 4B 0C E9
   1.079617 1  1AB             Rx   d 8 B9 26 32 31 FC EB C0 00
   1.079873 1  202             Rx   d 8 01 00 40 21 01 8E 00 CA
   1.080086 1  A6              Rx   d 7 6D 02 7D 0F FE 00 20
   1.080300 1  A5              Rx   d 8 00 02 B4 AF 7D DC 00 32
   1.080556 1  2B0             Rx   d 8 01 1E 3C 0A 28 00 00 00
   1.080812 1  77              Rx   d 8 45 01 76 64 00 00 00 00
   1.080940 1  600             Rx   d 2 00 00
   1.081068 1  414             Rx   d 3 F0 06 94
   1.082433 1  350             Rx   d 8 00 60 00 10 00 80 1D ED
   1.086188 1  610             Rx   d 7 52 D2 00 33 F4 FF 3B
   1.087894 1  1A1             Rx   d 8 90 85 42 B0 20 4B 0D C6
   1.089644 1  1AB             Rx   d 8 B9 26 32 31 FC EB C0 00
   1.089900 1  202             Rx   d 8 01 00 40 21 01 8E 00 CA
   1.090113 1  A6              Rx   d 7 44 03 7D 0F FE 00 20
   1.090369 1  A5              Rx   d 8 00 03 B4 AF 7D DC 00 32
   1.090582 1  2B0             Rx   d 8 01 1E 3C 0A 28 00 00 00
   1.090838 1  77              Rx   d 8 45 01 76 64 00 00 00 00
   1.090966 1  600             Rx   d 2 00 00
   1.091137 1  414             Rx   d 3 F0 06 94
   1.092460 1  350             Rx   d 8 00 60 00 10 00 80 1E EE
   1.093057 1  726             Rx   d 8 00 00 00 00 58 00 00 00
   1.093270 1  727             Rx   d 8 00 00 FF 0F 00 00 00 00
   1.093526 1  728             Rx   d 8 00 00 00 00 00 00 00 00
   1.093782 1  729             Rx   d 8 96 34 FF 0F FF 0F 00 00
   1.093996 1  655             Rx   d 8 02 04 55 56 65 45 02 00
   1.096172 1  610             Rx   d 7 52 D2 00 F5 F3 FF 3B
   1.097921 1  1A0             Rx   d 8 04 40 00 24 00 00 06 72
   1.098134 1  1A1             Rx   d 8 90 85 42 B0 20 4B 0E B7
   1.098390 1  5A0             Rx   d 8 0A 23 0D 00 00 00 00 00
   1.099713 1  1AB             Rx   d 8 B9 26 32 31 FC EB C0 00
   1.099969 1  202             Rx   d 8 01 00 40 21 01 8E 00 CA
   1.100182 1  A6              Rx   d 7 2B 04 7D 0F FE 00 20
   1.100395 1  A5              Rx   d 8 00 04 B4 AF 7D DC 00 32
   1.100651 1  2B0             Rx   d 8 01 1E 3C 0A 28 00 00 00
   1.100865 1  77              Rx   d 8 45 01 76 64 00 00 00 00
   1.101035 1  600             Rx   d 2 00 00
   1.101163 1  414             Rx   d 3 F0 06 94
   1.102443 1  350             Rx   d 8 00 60 00 10 00 80 1F EF
   1.106198 1  610             Rx   d 7 30 D2 00 BA F3 FF 3B
   1.107905 1  1A1             Rx   d 8 90 85 42 B0 20 4B 0F 98
   1.109654 1  1AB             Rx   d 8 B9 26 32 31 FC EB C0 00
   1.109910 1  202             Rx   d 8 01 00 40 21 01 8E 00 CA
   1.110123 1  A6              Rx   d 7 AB 05 7D 0F FE 00 20
   1.110337 1  A5              Rx   d 8 00 05 B4 AF 7D DC 00 32
   1.110593 1  2B0             Rx   d 8 01 1E 3C 0A 28 00 00 00
   1.110849 1  77              Rx   d 8 45 01 76 64 00 00 00 00
   1.110977 1  600             Rx   d 2 00 00
   1.111105 1  414             Rx   d 3 F0 06 94
   1.112427 1  350             Rx   d 8 00 60 00 10 00 80 10 E0
   1.114689 1  726             Rx   d 8 00 00 00 00 58 00 00 00
   1.114945 1  727             Rx   d 8 00 00 FF 0F 00 00 00 00
   1.115201 1  728             Rx   d 8 00 00 00 00 00 00 00 00
   1.115457 1  729             Rx   d 8 96 34 FF 0F FF 0F 00 00
   1.115670 1  655             Rx   d 8 02 04 55 56 65 45 02 00
   1.116182 1  610             Rx   d 7 52 D2 00 F8 F3 FF 3B
   1.117889 1  1A1             Rx   d 8 90 85 42 B0 20 4B 00 02
   1.119681 1  1AB             Rx   d 8 B9 26 32 31 FC EB C0 00
   1.119894 1  202             Rx   d 8 01 00 40 21 01 8E 00 CA
   1.120107 1  A6              Rx   d 7 3D 06 7D 0F FE 00 20
   1.120363 1  A5              Rx   d 8 00 06 B4 AF 7D DC 00 32
   1.120576 1  2B0             Rx   d 8 01 1E 3C 0A 28 00 00 00
   1.120832 1  77              Rx   d 8 45 01 76 64 00 00 00 00
   1.120960 1  600             Rx   d 2 00 00
   1.121131 1  414             Rx   d 3 F0 06 94
   1.122454 1  350             Rx   d 8 00 60 00 10 00 80 11 E1
   1.126166 1  610             Rx   d 7 52 D2 00 F8 F3 FF 3B
   1.127104 1  630             Rx   d 3 01 00 24
   1.127872 1  1A1             Rx   d 8 90 85 42 B0 20 4B 01 2D
   1.129664 1  1AB             Rx   d 8 B9 26 32 31 FC EB C0 00
   1.129920 1  202             Rx   d 8 01 00 40 21 01 8E 00 CA
   1.130134 1  A6              Rx   d 7 6A 07 7D 0F FE 00 20
   1.130347 1  A5              Rx   d 8 00 07 B4 AF 7D DC 00 32
   1.130603 1  2B0             Rx   d 8 01 1E 3C 0A 28 00 00 00
   1.130859 1  77              Rx   d 8 45 01 76 64 00 00 00 00
   1.130987 1  600             Rx   d 2 00 00
   1.131115 1  414             Rx   d 3 F0 06 94
   1.132438 1  350             Rx   d 8 00 60 00 10 00 80 12 E2
   1.136192 1  610             Rx   d 7 52 D2 00 31 F4 FF 3B
   1.136406 1  726             Rx   d 8 00 00 00 00 58 00 00 00
   1.136662 1  727             Rx   d 8 00 00 FF 0F 00 00 00 00
   1.136918 1  728             Rx   d 8 00 00 00 00 00 00 00 00
   1.137174 1  729             Rx   d 8 9E 34 FF 0F F6 0F 00 00
   1.137344 1  640             Rx   d 6 E8 D3 07 F4 E9 03
   1.137600 1  655             Rx   d 8 02 04 55 56 65 45 02 00
   1.137899 1  1A1             Rx   d 8 90 85 42 B0 20 4B 02 5C
   1.139648 1  1AB             Rx   d 8 B9 26 32 31 FC EB C0 00
   1.139904 1  202             Rx   d 8 01 00 40 21 01 8D 00 CA
   1.140118 1  A6              Rx   d 7 13 08 7D 0F FE 00 20
   1.140374 1  A5              Rx   d 8 00 08 B4 AF 7D DC 00 32
   1.140587 1  2B0             Rx   d 8 01 1E 3C 0A 28 00 00 00
   1.140843 1  77              Rx   d 8 45 01 76 64 00 00 00 00
   1.140971 1  600             Rx   d 2 00 00
   1.141142 1  414             Rx   d 3 F0 06 94
   1.142464 1  350             Rx   d 8 00 60 00 10 00 80 13 E3
   1.146176 1  610             Rx   d 7 C1 D1 00 31 F4 FF 3B
   1.147925 1  1A0             Rx   d 8 04 40 00 24 00 00 07 5D
   1.148139 1  1A1             Rx   d 8 90 85 42 B0 20 4B 03 73
   1.149632 1  1AB             Rx   d 8 B9 26 32 31 FC EB C0 00
   1.149888 1  202             Rx   d 8 01 00 40 21 01 8D 00 CA
   1.150101 1  A6              Rx   d 7 B5 09 7D 0F FE 00 20
   1.150357 1  A5              Rx   d 8 00 09 B4 AF 7D DC 00 32
   1.150571 1  2B0             Rx   d 8 01 1E 3C 0A 28 00 00 00
   1.150827 1  77              Rx   d 8 45 01 76 64 00 00 00 00
   1.150955 1  600             Rx   d 2 00 00
   1.151125 1  414             Rx   d 3 F0 06 94
   1.151339 1  114             Rx   d 8 01 00 00 01 02 03 04 05
   1.152448 1  350             Rx   d 8 00 60 00 10 00 80 14 E4
   1.156160 1  610             Rx   d 7 A7 D3 00 31 F4 FF 3B
   1.157909 1  1A1             Rx   d 8 90 85 42 B0 20 4B 04 BE
   1.158123 1  726             Rx   d 8 00 00 00 00 58 00 00 00
   1.158379 1  727             Rx   d 8 00 00 FF 0F 00 00 00 00
   1.158635 1  728             Rx   d 8 00 00 00 00 00 00 00 00
   1.158891 1  729             Rx   d 8 9E 34 FF 0F F6 0F 00 00
   1.159104 1  655             Rx   d 8 02 04 55 56 65 45 02 00
   1.159659 1  1AB             Rx   d 8 B9 26 32 31 FC EB C0 00
   1.159872 1  202             Rx   d 8 01 00 40 21 01 8D 00 CA
   1.160085 1  A6              Rx   d 7 B1 0A 7D 0F FE 00 20
   1.160341 1  A5              Rx   d 8 00 0A B4 AF 7D DC 00 32
   1.160597 1  2B0             Rx   d 8 01 1E 3C 0A 28 00 00 00
   1.160811 1  77              Rx   d 8 45 01 76 64 00 00 00 00
   1.160939 1  600             Rx   d 2 00 00
   1.161109 1  414             Rx   d 3 F0 06 94
   1.162432 1  350             Rx   d 8 00 60 00 10 00 80 15 E5
   1.166186 1  610             Rx   d 7 52 D2 00 F5 F3 FF 3B
   1.167893 1  1A1             Rx   d 8 90 85 42 B0 20 4B 05 91
   1.169642 1  1AB             Rx   d 8 B9 26 32 31 FC EB C0 00
   1.169856 1  202             Rx   d 8 01 00 40 21 01 8C 00 CA
   1.170112 1  A6              Rx   d 7 AE 0B 7D 0F FE 00 20
   1.170325 1  A5              Rx   d 8 00 0B B4 AF 7D DC 00 32
