date Mon Aug 24 12:12:19 2026
base hex  timestamps absolute
internal events logged
// PeakLive ASC recording
Begin Triggerblock Mon Aug 24 12:12:19 2026
// PeakLive connected: Connected: passive listen-only
   0.000000 1  610             Rx   d 7 ED D1 00 44 F3 FF 3A
   0.000640 1  350             Rx   d 8 00 60 00 10 00 80 17 E7
   0.002176 1  1A1             Rx   d 8 90 85 42 90 20 51 0C 58
   0.003328 1  1AB             Rx   d 8 B9 26 32 31 FC EB C0 00
   0.003541 1  202             Rx   d 8 01 00 40 21 01 8D 00 CA
   0.003754 1  A6              Rx   d 7 6D 02 7D 0F FE 00 20
   0.004010 1  A5              Rx   d 8 00 02 B4 AF 7D DC 00 32
   0.004224 1  2B0             Rx   d 8 01 1E 3C 0A 28 00 00 00
   0.004480 1  77              Rx   d 8 45 01 74 64 00 00 00 00
   0.004608 1  600             Rx   d 2 00 00
   0.004778 1  414             Rx   d 3 F0 06 94
   0.009983 1  610             Rx   d 7 11 D2 00 80 F3 FF 3A
   0.010666 1  350             Rx   d 8 00 60 00 10 00 80 18 E8
   0.011818 1  726             Rx   d 8 00 00 00 00 58 00 00 00
   0.012074 1  727             Rx   d 8 00 00 F5 0F 00 00 00 00
   0.012287 1  1A1             Rx   d 8 90 85 42 90 20 51 0D 77
   0.012543 1  728             Rx   d 8 00 00 00 00 00 00 00 00
   0.012757 1  729             Rx   d 8 5E 34 F8 0F FF 0F 00 00
   0.013013 1  655             Rx   d 8 02 04 55 56 65 45 02 00
   0.013311 1  1AB             Rx   d 8 B9 26 32 31 FC EB C0 00
   0.013567 1  202             Rx   d 8 01 00 40 21 01 8D 00 CA
   0.013781 1  A6              Rx   d 7 44 03 7D 0F FE 00 20
   0.013994 1  A5              Rx   d 8 00 03 B4 AF 7D DC 00 32
   0.014250 1  2B0             Rx   d 8 01 1E 3C 0A 28 00 00 00
   0.014506 1  77              Rx   d 8 45 01 74 64 00 00 00 00
   0.014634 1  600             Rx   d 2 00 00
   0.014762 1  414             Rx   d 3 F0 06 94
   0.015018 1  114             Rx   d 8 01 00 00 01 02 03 04 05
   0.019967 1  610             Rx   d 7 ED D1 00 BC F3 FF 3A
   0.020650 1  350             Rx   d 8 00 60 00 10 00 80 19 E9
   0.022143 1  1A1             Rx   d 8 90 85 42 90 20 51 0E 06
   0.023295 1  1AB             Rx   d 8 B9 26 32 31 FC EB C0 00
   0.023509 1  202             Rx   d 8 01 00 40 21 01 8D 00 CA
   0.023765 1  A6              Rx   d 7 2B 04 7D 0F FE 00 20
   0.023978 1  A5              Rx   d 8 00 04 B4 AF 7D DC 00 32
   0.024234 1  2B0             Rx   d 8 01 1E 3C 0A 28 00 00 00
   0.024447 1  77              Rx   d 8 45 01 74 64 00 00 00 00
   0.024618 1  600             Rx   d 2 00 00
   0.024746 1  414             Rx   d 3 F0 06 94
   0.029994 1  610             Rx   d 7 96 D2 00 80 F3 FF 3A
   0.030634 1  350             Rx   d 8 00 61 00 10 00 80 1A EB
   0.031914 1  630             Rx   d 3 01 00 24
   0.032170 1  1A0             Rx   d 8 04 40 00 24 00 00 03 E1
   0.032383 1  1A1             Rx   d 8 90 85 42 90 20 51 0F 29
   0.033108 1  726             Rx   d 8 00 00 00 00 58 00 00 00
   0.033364 1  727             Rx   d 8 00 00 F5 0F 00 00 00 00
   0.033578 1  A6              Rx   d 7 AB 05 7D 0F FE 00 20
   0.033834 1  A5              Rx   d 8 00 05 B4 AF 7D DC 00 32
   0.034047 1  2B0             Rx   d 8 01 1E 3C 0A 28 00 00 00
   0.034303 1  77              Rx   d 8 45 01 74 64 00 00 00 00
   0.034431 1  600             Rx   d 2 00 00
   0.034602 1  414             Rx   d 3 F0 06 94
   0.034815 1  1AB             Rx   d 8 B9 26 32 31 FC EB C0 00
   0.035071 1  202             Rx   d 8 01 00 40 21 01 8E 00 CA
   0.035327 1  728             Rx   d 8 00 00 00 00 00 00 00 00
   0.035540 1  729             Rx   d 8 5E 34 F8 0F FF 0F 00 00
   0.035796 1  655             Rx   d 8 02 04 55 56 65 45 02 00
   0.039978 1  610             Rx   d 7 ED D1 00 80 F3 FF 3A
   0.040660 1  350             Rx   d 8 00 60 00 10 00 80 1B EB
   0.041983 1  640             Rx   d 6 E8 D3 07 F4 E9 03
   0.042196 1  1A1             Rx   d 8 8F 85 42 90 20 51 00 96
   0.043348 1  1AB             Rx   d 8 B9 26 32 31 FC EB C0 00
   0.043604 1  202             Rx   d 8 01 00 40 21 01 8D 00 CA
   0.043818 1  A6              Rx   d 7 3D 06 7D 0F FE 00 20
   0.044074 1  A5              Rx   d 8 00 06 B4 AF 7D DC 00 32
   0.044287 1  2B0             Rx   d 8 01 1E 3C 0A 28 00 00 00
   0.044543 1  77              Rx   d 8 45 01 74 64 00 00 00 00
   0.044671 1  600             Rx   d 2 00 00
   0.044842 1  414             Rx   d 3 F0 06 94
   0.050004 1  610             Rx   d 7 ED D1 00 80 F3 FF 3A
   0.050644 1  350             Rx   d 8 00 61 00 10 00 80 1C ED
   0.052138 1  1A1             Rx   d 8 90 85 42 90 20 51 01 9C
   0.053289 1  1AB             Rx   d 8 B9 26 32 31 FC EB C0 00
   0.053545 1  202             Rx   d 8 01 00 40 21 01 8D 00 CA
   0.053759 1  A6              Rx   d 7 6A 07 7D 0F FE 00 20
   0.054015 1  A5              Rx   d 8 00 07 B4 AF 7D DC 00 32
   0.054228 1  2B0             Rx   d 8 01 1E 3C 0A 28 00 00 00
   0.054484 1  77              Rx   d 8 45 01 74 64 00 00 00 00
   0.054612 1  600             Rx   d 2 00 00
   0.054783 1  414             Rx   d 3 F0 06 94
   0.054996 1  726             Rx   d 8 00 00 00 00 58 00 00 00
   0.055252 1  727             Rx   d 8 00 00 F5 0F 00 00 00 00
   0.055508 1  728             Rx   d 8 00 00 00 00 00 00 00 00
   0.055721 1  729             Rx   d 8 5E 34 F8 0F FF 0F 00 00
   0.055977 1  655             Rx   d 8 02 04 55 56 65 45 02 00
   0.059988 1  610             Rx   d 7 0E D2 00 80 F3 FF 3A
   0.060671 1  350             Rx   d 8 00 60 00 10 00 80 1D ED
   0.062164 1  1A1             Rx   d 8 8F 85 42 90 20 51 02 C8
   0.063316 1  1AB             Rx   d 8 B9 26 32 31 FC EB C0 00
   0.063529 1  202             Rx   d 8 01 00 40 21 01 8E 00 CA
   0.063785 1  A6              Rx   d 7 13 08 7D 0F FE 00 20
   0.063999 1  A5              Rx   d 8 00 08 B4 AF 7D DC 00 32
   0.064255 1  2B0             Rx   d 8 01 1E 3C 0A 28 00 00 00
   0.064468 1  77              Rx   d 8 45 01 74 64 00 00 00 00
   0.064639 1  600             Rx   d 2 00 00
   0.064767 1  414             Rx   d 3 F0 06 94
   0.069972 1  610             Rx   d 7 CB D1 00 80 F3 FF 3A
   0.070655 1  350             Rx   d 8 00 60 00 10 00 80 1E EE
   0.072148 1  1A1             Rx   d 8 90 85 42 90 20 51 03 C2
   0.073300 1  1AB             Rx   d 8 B9 26 32 31 FC EB C0 00
   0.073513 1  202             Rx   d 8 01 00 40 21 01 8D 00 CA
   0.073769 1  A6              Rx   d 7 B5 09 7D 0F FE 00 20
   0.073982 1  A5              Rx   d 8 00 09 B4 AF 7D DC 00 32
   0.074238 1  2B0             Rx   d 8 01 1E 3C 0A 28 00 00 00
   0.074452 1  77              Rx   d 8 45 01 74 64 00 00 00 00
   0.074580 1  600             Rx   d 2 00 00
   0.074750 1  414             Rx   d 3 F0 06 94
   0.076542 1  726             Rx   d 8 00 00 00 00 58 00 00 00
   0.076756 1  727             Rx   d 8 00 00 F5 0F 00 00 00 00
   0.077012 1  728             Rx   d 8 00 00 00 00 00 00 00 00
   0.077268 1  729             Rx   d 8 5E 34 F8 0F FF 0F 00 00
   0.077481 1  655             Rx   d 8 02 04 55 56 65 45 02 00
   0.079998 1  610             Rx   d 7 ED D1 00 44 F3 FF 3A
   0.080638 1  350             Rx   d 8 00 60 00 10 00 80 1F EF
   0.082174 1  1A0             Rx   d 8 04 40 00 24 00 00 04 2C
   0.082388 1  1A1             Rx   d 8 8F 85 42 90 20 51 04 2A
   0.082644 1  5A0             Rx   d 8 0A 23 0D 00 00 00 00 00
   0.083284 1  1AB             Rx   d 8 B9 26 32 31 FC EB C0 00
   0.083540 1  202             Rx   d 8 01 00 40 21 01 8C 00 CA
   0.083753 1  A6              Rx   d 7 B1 0A 7D 0F FE 00 20
   0.084009 1  A5              Rx   d 8 00 0A B4 AF 7D DC 00 32
   0.084222 1  2B0             Rx   d 8 01 1E 3C 0A 28 00 00 00
   0.084478 1  77              Rx   d 8 45 01 74 64 00 00 00 00
   0.084606 1  600             Rx   d 2 00 00
   0.084777 1  414             Rx   d 3 F0 06 94
   0.089982 1  610             Rx   d 7 ED D1 00 44 F3 FF 3A
   0.090665 1  350             Rx   d 8 00 60 00 10 00 80 10 E0
   0.092158 1  1A1             Rx   d 8 8F 85 42 90 20 51 05 05
   0.093268 1  1AB             Rx   d 8 B9 26 32 31 FC EB C0 00
   0.093524 1  202             Rx   d 8 01 00 40 21 01 8C 00 CA
   0.093737 1  A6              Rx   d 7 AE 0B 7D 0F FE 00 20
   0.093993 1  A5              Rx   d 8 00 0B B4 AF 7D DC 00 32
   0.094206 1  2B0             Rx   d 8 01 1E 3C 0A 28 00 00 00
   0.094462 1  77              Rx   d 8 45 01 74 64 00 00 00 00
   0.094590 1  600             Rx   d 2 00 00
   0.094761 1  414             Rx   d 3 F0 06 94
   0.098046 1  726             Rx   d 8 00 00 00 00 58 00 00 00
   0.098302 1  727             Rx   d 8 00 00 F5 0F 00 00 00 00
   0.098515 1  728             Rx   d 8 00 00 00 00 00 00 00 00
   0.098771 1  729             Rx   d 8 5E 34 F8 0F FF 0F 00 00
   0.098985 1  655             Rx   d 8 02 04 55 56 65 45 02 00
   0.099966 1  610             Rx   d 7 5A D1 00 80 F3 FF 3A
   0.100649 1  350             Rx   d 8 00 60 00 10 00 80 11 E1
   0.102142 1  1A1             Rx   d 8 8F 85 42 90 20 51 06 74
   0.103294 1  1AB             Rx   d 8 B9 26 32 31 FC EB C0 00
   0.103550 1  202             Rx   d 8 01 00 40 21 01 8D 00 CA
   0.103763 1  A6              Rx   d 7 E9 0C 7D 0F FE 00 20
   0.103977 1  A5              Rx   d 8 00 0C B4 AF 7D DC 00 32
   0.104233 1  2B0             Rx   d 8 01 1E 3C 0A 28 00 00 00
   0.104489 1  77              Rx   d 8 45 01 74 64 00 00 00 00
   0.104617 1  600             Rx   d 2 00 00
   0.104745 1  414             Rx   d 3 F0 06 94
   0.109993 1  610             Rx   d 7 B8 D2 00 80 F3 FF 3A
   0.110675 1  350             Rx   d 8 00 60 00 10 00 80 12 E2
   0.112169 1  1A1             Rx   d 8 8F 85 42 90 20 51 07 5B
   0.113278 1  1AB             Rx   d 8 B9 26 32 31 FC EB C0 00
   0.113534 1  202             Rx   d 8 01 00 40 21 01 8D 00 CA
   0.113747 1  A6              Rx   d 7 EC 0D 7D 0F FE 00 20
   0.114003 1  A5              Rx   d 8 00 0D B4 AF 7D DC 00 32
   0.114217 1  2B0             Rx   d 8 01 1E 3C 0A 28 00 00 00
   0.114473 1  77              Rx   d 8 45 01 74 64 00 00 00 00
   0.114601 1  600             Rx   d 2 00 00
   0.114771 1  414             Rx   d 3 F0 06 94
   0.114985 1  114             Rx   d 8 01 00 00 01 02 03 04 05
   0.119678 1  726             Rx   d 8 00 00 00 00 58 00 00 00
   0.119934 1  727             Rx   d 8 00 00 F5 0F 00 00 00 00
   0.120190 1  728             Rx   d 8 00 00 00 00 00 00 00 00
   0.120403 1  610             Rx   d 7 38 D1 00 80 F3 FF 3A
   0.120616 1  729             Rx   d 8 5E 34 F8 0F FF 0F 00 00
   0.120872 1  350             Rx   d 8 00 60 00 10 00 80 13 E3
   0.121128 1  655             Rx   d 8 02 04 55 56 65 45 02 00
   0.122152 1  1A1             Rx   d 8 90 85 42 90 20 51 08 E4
   0.123304 1  1AB             Rx   d 8 B9 26 32 31 FC EB C0 00
   0.123518 1  202             Rx   d 8 01 00 40 21 01 8D 00 CA
   0.123774 1  A6              Rx   d 7 71 0E 7D 0F FE 00 20
   0.123987 1  A5              Rx   d 8 00 0E B4 AF 7D DC 00 32
   0.124243 1  2B0             Rx   d 8 01 1E 3C 0A 28 00 00 00
   0.124456 1  77              Rx   d 8 45 01 74 64 00 00 00 00
   0.124627 1  600             Rx   d 2 00 00
   0.124755 1  414             Rx   d 3 F0 06 94
   0.130003 1  610             Rx   d 7 0E D2 00 80 F3 FF 3A
   0.130643 1  350             Rx   d 8 00 61 00 10 00 80 14 E5
   0.131923 1  630             Rx   d 3 01 00 24
   0.132179 1  1A0             Rx   d 8 04 40 00 24 00 00 05 03
   0.132392 1  1A1             Rx   d 8 90 85 42 90 20 51 09 CB
   0.133288 1  1AB             Rx   d 8 B9 26 32 31 FC EB C0 00
   0.133544 1  202             Rx   d 8 01 00 40 21 01 8E 00 CA
   0.133758 1  A6              Rx   d 7 EF 0F 7D 0F FE 00 20
   0.134014 1  A5              Rx   d 8 00 0F B4 AF 7D DC 00 32
   0.134227 1  2B0             Rx   d 8 01 1E 3C 0A 28 00 00 00
   0.134483 1  77              Rx   d 8 45 01 74 64 00 00 00 00
   0.134611 1  600             Rx   d 2 00 00
   0.134782 1  414             Rx   d 3 F0 06 94
   0.139987 1  610             Rx   d 7 11 D2 00 80 F3 FF 3A
   0.140669 1  350             Rx   d 8 00 60 00 10 00 80 15 E5
   0.141352 1  726             Rx   d 8 00 00 00 00 58 00 00 00
   0.141608 1  727             Rx   d 8 00 00 FF 0F 00 00 00 00
   0.141821 1  640             Rx   d 6 E8 D3 07 F4 E9 03
   0.142077 1  728             Rx   d 8 00 00 00 00 00 00 00 00
   0.142291 1  1A1             Rx   d 8 90 85 42 90 20 51 0A BA
   0.142547 1  729             Rx   d 8 5E 34 F8 0F FF 0F 00 00
   0.142760 1  655             Rx   d 8 02 04 55 56 65 45 02 00
   0.143315 1  1AB             Rx   d 8 B9 26 32 31 FC EB C0 00
   0.143528 1  202             Rx   d 8 01 00 40 21 01 8E 00 CA
   0.143741 1  A6              Rx   d 7 98 00 7D 0F FE 00 20
   0.143997 1  A5              Rx   d 8 00 00 B4 AF 7D DC 00 32
   0.144211 1  2B0             Rx   d 8 01 1E 3C 0A 28 00 00 00
   0.144467 1  77              Rx   d 8 45 01 74 64 00 00 00 00
   0.144595 1  600             Rx   d 2 00 00
   0.144765 1  414             Rx   d 3 F0 06 94
   0.149971 1  610             Rx   d 7 0E D2 00 80 F3 FF 3A
   0.150653 1  350             Rx   d 8 00 60 00 10 00 80 16 E6
   0.152147 1  1A1             Rx   d 8 90 85 42 90 20 51 0B 95
   0.153299 1  1AB             Rx   d 8 B9 26 32 31 FC EB C0 00
   0.153512 1  202             Rx   d 8 01 00 40 21 01 8E 00 CA
   0.153725 1  A6              Rx   d 7 76 01 7D 0F FE 00 20
   0.153981 1  A5              Rx   d 8 00 01 B4 AF 7D DC 00 32
   0.154237 1  2B0             Rx   d 8 01 1E 3C 0A 28 00 00 00
   0.154451 1  77              Rx   d 8 45 01 74 64 00 00 00 00
   0.154579 1  600             Rx   d 2 00 00
   0.154749 1  414             Rx   d 3 F0 06 94
   0.159997 1  610             Rx   d 7 ED D1 00 BC F3 FF 3A
   0.160637 1  350             Rx   d 8 00 61 00 10 00 80 17 E6
   0.162173 1  1A1             Rx   d 8 90 85 42 90 20 51 0C 58
   0.163026 1  726             Rx   d 8 00 00 00 00 58 00 00 00
   0.163240 1  727             Rx   d 8 00 00 FF 0F 00 00 00 00
   0.163496 1  1AB             Rx   d 8 B9 26 32 31 FC EB C0 00
   0.163709 1  A6              Rx   d 7 6D 02 7D 0F FE 00 20
   0.163965 1  A5              Rx   d 8 00 02 B4 AF 7D DC 00 32
   0.164178 1  2B0             Rx   d 8 01 1E 3C 0A 28 00 00 00
   0.164434 1  77              Rx   d 8 45 01 74 64 00 00 00 00
   0.164562 1  600             Rx   d 2 00 00
   0.164733 1  414             Rx   d 3 F0 06 94
   0.164946 1  202             Rx   d 8 01 00 40 21 01 8E 00 CA
   0.165202 1  728             Rx   d 8 00 00 00 00 00 00 00 00
   0.165458 1  729             Rx   d 8 76 34 FF 0F FF 0F 00 00
   0.165672 1  655             Rx   d 8 02 04 55 56 65 45 02 00
   0.169981 1  610             Rx   d 7 ED D1 00 BC F3 FF 3A
   0.170664 1  350             Rx   d 8 00 60 00 10 00 80 18 E8
   0.172157 1  1A1             Rx   d 8 8F 85 42 90 20 51 0D 52
   0.173266 1  1AB             Rx   d 8 B9 26 32 31 FC EB C0 00
   0.173522 1  202             Rx   d 8 01 00 40 21 01 8E 00 CA
   0.173736 1  A6              Rx   d 7 44 03 7D 0F FE 00 20
   0.173949 1  A5              Rx   d 8 00 03 B4 AF 7D DC 00 32
   0.174205 1  2B0             Rx   d 8 01 1E 3C 0A 28 00 00 00
   0.174461 1  77              Rx   d 8 45 01 74 64 00 00 00 00
   0.174589 1  600             Rx   d 2 00 00
   0.174717 1  414             Rx   d 3 F0 06 94
   0.179965 1  610             Rx   d 7 5C D1 00 BC F3 FF 3A
   0.180647 1  350             Rx   d 8 00 60 00 10 00 80 19 E9
   0.182183 1  1A0             Rx   d 8 04 40 00 24 00 00 06 72
   0.182397 1  1A1             Rx   d 8 90 85 42 90 20 51 0E 06
   0.182653 1  5A0             Rx   d 8 0A 23 0D 00 00 00 00 00
   0.183293 1  1AB             Rx   d 8 B9 26 32 31 FC EB C0 00
   0.183506 1  202             Rx   d 8 01 00 40 21 01 8D 00 CA
   0.183719 1  A6              Rx   d 7 2B 04 7D 0F FE 00 20
   0.183975 1  A5              Rx   d 8 00 04 B4 AF 7D DC 00 32
   0.184231 1  2B0             Rx   d 8 01 1E 3C 0A 28 00 00 00
   0.184445 1  77              Rx   d 8 45 01 74 64 00 00 00 00
   0.184573 1  600             Rx   d 2 00 00
   0.184743 1  414             Rx   d 3 F0 06 94
   0.184999 1  726             Rx   d 8 00 00 00 00 58 00 00 00
   0.185213 1  727             Rx   d 8 00 00 FF 0F 00 00 00 00
   0.185469 1  728             Rx   d 8 00 00 00 00 00 00 00 00
   0.185725 1  729             Rx   d 8 76 34 FF 0F FF 0F 00 00
   0.185938 1  655             Rx   d 8 02 04 55 56 65 45 02 00
   0.189991 1  610             Rx   d 7 B8 D2 00 BC F3 FF 3A
   0.190674 1  350             Rx   d 8 00 60 00 10 00 80 1A EA
   0.192167 1  1A1             Rx   d 8 8F 85 42 90 20 51 0F 0C
   0.193277 1  1AB             Rx   d 8 B9 26 32 31 FC EB C0 00
   0.193533 1  202             Rx   d 8 01 00 40 21 01 8D 00 CA
   0.193746 1  A6              Rx   d 7 AB 05 7D 0F FE 00 20
   0.193959 1  A5              Rx   d 8 00 05 B4 AF 7D DC 00 32
   0.194215 1  2B0             Rx   d 8 01 1E 3C 0A 28 00 00 00
   0.194471 1  77              Rx   d 8 45 01 74 64 00 00 00 00
   0.194599 1  600             Rx   d 2 00 00
   0.194727 1  414             Rx   d 3 F0 06 94
   0.199975 1  610             Rx   d 7 ED D1 00 BC F3 FF 3A
   0.200658 1  350             Rx   d 8 00 60 00 10 00 80 1B EB
   0.202151 1  1A1             Rx   d 8 90 85 42 90 20 51 00 B3
   0.203260 1  1AB             Rx   d 8 B9 26 32 31 FC EB C0 00
   0.203516 1  202             Rx   d 8 01 00 40 21 01 8E 00 CA
   0.203730 1  A6              Rx   d 7 3D 06 7D 0F FE 00 20
   0.203986 1  A5              Rx   d 8 00 06 B4 AF 7D DC 00 32
   0.204199 1  2B0             Rx   d 8 01 1E 3C 0A 28 00 00 00
   0.204455 1  77              Rx   d 8 45 01 74 64 00 00 00 00
   0.204583 1  600             Rx   d 2 00 00
   0.204754 1  414             Rx   d 3 F0 06 94
   0.206503 1  726             Rx   d 8 00 00 00 00 58 00 00 00
   0.206759 1  727             Rx   d 8 00 00 FF 0F 00 00 00 00
   0.206972 1  728             Rx   d 8 00 00 00 00 00 00 00 00
   0.207228 1  729             Rx   d 8 76 34 FF 0F FF 0F 00 00
   0.207442 1  655             Rx   d 8 02 04 55 56 65 45 02 00
   0.209959 1  610             Rx   d 7 0E D2 00 BC F3 FF 3A
   0.210642 1  350             Rx   d 8 00 60 00 10 00 80 1C EC
   0.212178 1  1A1             Rx   d 8 90 85 42 90 20 51 01 9C
   0.213287 1  1AB             Rx   d 8 B9 26 32 31 FC EB C0 00
   0.213500 1  202             Rx   d 8 01 00 40 21 01 8D 00 CA
   0.213714 1  A6              Rx   d 7 6A 07 7D 0F FE 00 20
   0.213970 1  A5              Rx   d 8 00 07 B4 AF 7D DC 00 32
   0.214226 1  2B0             Rx   d 8 01 1E 3C 0A 28 00 00 00
   0.214439 1  77              Rx   d 8 45 01 74 64 00 00 00 00
   0.214567 1  600             Rx   d 2 00 00
   0.214738 1  414             Rx   d 3 F0 06 94
   0.214994 1  114             Rx   d 8 01 00 00 01 02 03 04 05
   0.219986 1  610             Rx   d 7 ED D1 00 80 F3 FF 3A
   0.220668 1  350             Rx   d 8 00 60 00 10 00 80 1D ED
   0.222162 1  1A1             Rx   d 8 90 85 42 90 20 51 02 ED
   0.223271 1  1AB             Rx   d 8 B9 26 32 31 FC EB C0 00
   0.223527 1  202             Rx   d 8 01 00 40 21 01 8D 00 CA
   0.223740 1  A6              Rx   d 7 13 08 7D 0F FE 00 20
   0.223953 1  A5              Rx   d 8 00 08 B4 AF 7D DC 00 32
   0.224209 1  2B0             Rx   d 8 01 1E 3C 0A 28 00 00 00
   0.224465 1  77              Rx   d 8 45 01 74 64 00 00 00 00
   0.224593 1  600             Rx   d 2 00 00
   0.224721 1  414             Rx   d 3 F0 06 94
   0.228007 1  726             Rx   d 8 00 00 00 00 58 00 00 00
   0.228220 1  727             Rx   d 8 00 00 FF 0F 00 00 00 00
   0.228476 1  728             Rx   d 8 00 00 00 00 00 00 00 00
   0.228732 1  729             Rx   d 8 76 34 FF 0F FF 0F 00 00
   0.228945 1  655             Rx   d 8 02 04 55 56 65 45 02 00
   0.229969 1  610             Rx   d 7 11 D2 00 80 F3 FF 3A
   0.230652 1  350             Rx   d 8 00 60 00 10 00 80 1E EE
   0.231932 1  630             Rx   d 3 01 00 24
   0.232188 1  1A0             Rx   d 8 04 40 00 24 00 00 07 5D
   0.232401 1  1A1             Rx   d 8 8F 85 42 90 20 51 03 E7
   0.233297 1  1AB             Rx   d 8 B9 26 32 31 FC EB C0 00
   0.233511 1  202             Rx   d 8 01 00 40 21 01 8D 00 CA
   0.233724 1  A6              Rx   d 7 B5 09 7D 0F FE 00 20
   0.233980 1  A5              Rx   d 8 00 09 B4 AF 7D DC 00 32
   0.234236 1  2B0             Rx   d 8 01 1E 3C 0A 28 00 00 00
   0.234449 1  77              Rx   d 8 45 01 74 64 00 00 00 00
   0.234577 1  600             Rx   d 2 00 00
   0.234748 1  414             Rx   d 3 F0 06 94
   0.239996 1  610             Rx   d 7 ED D1 00 80 F3 FF 3A
   0.240679 1  350             Rx   d 8 00 60 00 10 00 80 1F EF
   0.241959 1  640             Rx   d 6 E8 D3 07 F4 E9 03
   0.242172 1  1A1             Rx   d 8 90 85 42 90 20 51 04 0F
   0.243281 1  1AB             Rx   d 8 B9 26 32 31 FC EB C0 00
   0.243495 1  202             Rx   d 8 01 00 40 21 01 8D 00 CA
   0.243751 1  A6              Rx   d 7 B1 0A 7D 0F FE 00 20
   0.243964 1  A5              Rx   d 8 00 0A B4 AF 7D DC 00 32
   0.244220 1  2B0             Rx   d 8 01 1E 3C 0A 28 00 00 00
   0.244433 1  77              Rx   d 8 45 01 74 64 00 00 00 00
   0.244604 1  600             Rx   d 2 00 00
   0.244732 1  414             Rx   d 3 F0 06 94
   0.249510 1  726             Rx   d 8 00 00 00 00 58 00 00 00
   0.249724 1  727             Rx   d 8 00 00 FF 0F 00 00 00 00
   0.249980 1  728             Rx   d 8 00 00 00 00 00 00 00 00
   0.250193 1  610             Rx   d 7 0E D2 00 80 F3 FF 3A
   0.250449 1  729             Rx   d 8 76 34 FF 0F FF 0F 00 00
   0.250662 1  350             Rx   d 8 00 61 00 10 00 80 10 E1
   0.250918 1  655             Rx   d 8 02 04 55 56 65 45 02 00
   0.252156 1  1A1             Rx   d 8 90 85 42 90 20 51 05 20
   0.253265 1  1AB             Rx   d 8 B9 26 32 31 FC EB C0 00
   0.253478 1  202             Rx   d 8 01 00 40 21 01 8D 00 CA
   0.253734 1  A6              Rx   d 7 AE 0B 7D 0F FE 00 20
   0.253948 1  A5              Rx   d 8 00 0B B4 AF 7D DC 00 32
   0.254204 1  2B0             Rx   d 8 01 1E 3C 0A 28 00 00 00
   0.254417 1  77              Rx   d 8 45 01 74 64 00 00 00 00
   0.254588 1  600             Rx   d 2 00 00
   0.254716 1  414             Rx   d 3 F0 06 94
   0.259964 1  610             Rx   d 7 38 D1 00 BC F3 FF 3A
   0.260646 1  350             Rx   d 8 00 60 00 10 00 80 11 E1
   0.262140 1  1A1             Rx   d 8 90 85 42 90 20 51 06 51
   0.263249 1  1AB             Rx   d 8 B9 26 32 31 FC EB C0 00
   0.263505 1  202             Rx   d 8 01 00 40 21 01 8D 00 CA
   0.263718 1  A6              Rx   d 7 E9 0C 7D 0F FE 00 20
   0.263974 1  A5              Rx   d 8 00 0C B4 AF 7D DC 00 32
   0.264188 1  2B0             Rx   d 8 01 1E 3C 0A 28 00 00 00
   0.264444 1  77              Rx   d 8 45 01 74 64 00 00 00 00
   0.264572 1  600             Rx   d 2 00 00
   0.264742 1  414             Rx   d 3 F0 06 94
   0.269990 1  610             Rx   d 7 1D D3 00 BC F3 FF 3A
   0.270673 1  350             Rx   d 8 00 61 00 10 00 80 12 E3
   0.271057 1  726             Rx   d 8 00 00 00 00 58 00 00 00
   0.271270 1  727             Rx   d 8 00 00 FF 0F 00 00 00 00
   0.271526 1  728             Rx   d 8 00 00 00 00 00 00 00 00
   0.271782 1  729             Rx   d 8 76 34 FF 0F FF 0F 00 00
   0.271995 1  655             Rx   d 8 02 04 55 56 65 45 02 00
   0.272209 1  1A1             Rx   d 8 90 85 42 90 20 51 07 7E
   0.273275 1  1AB             Rx   d 8 B9 26 32 31 FC EB C0 00
   0.273489 1  202             Rx   d 8 01 00 40 21 01 8D 00 CA
   0.273702 1  A6              Rx   d 7 EC 0D 7D 0F FE 00 20
   0.273958 1  A5              Rx   d 8 00 0D B4 AF 7D DC 00 32
   0.274171 1  2B0             Rx   d 8 01 1E 3C 0A 28 00 00 00
   0.274427 1  77              Rx   d 8 45 01 74 64 00 00 00 00
   0.274555 1  600             Rx   d 2 00 00
   0.274726 1  414             Rx   d 3 F0 06 94
   0.279974 1  610             Rx   d 7 0E D2 00 F8 F3 FF 3A
   0.280657 1  350             Rx   d 8 00 60 00 10 00 80 13 E3
   0.282150 1  1A0             Rx   d 8 04 40 00 24 00 00 08 C7
   0.282406 1  1A1             Rx   d 8 90 85 42 90 20 51 08 E4
   0.282619 1  5A0             Rx   d 8 0A 23 0D 00 00 00 00 00
   0.283259 1  1AB             Rx   d 8 B9 26 32 31 FC EB C0 00
   0.283515 1  202             Rx   d 8 01 00 40 21 01 8D 00 CA
   0.283729 1  A6              Rx   d 7 71 0E 7D 0F FE 00 20
   0.283942 1  A5              Rx   d 8 00 0E B4 AF 7D DC 00 32
   0.284198 1  2B0             Rx   d 8 01 1E 3C 0A 28 00 00 00
   0.284454 1  77              Rx   d 8 45 01 74 64 00 00 00 00
   0.284582 1  600             Rx   d 2 00 00
   0.284710 1  414             Rx   d 3 F0 06 94
   0.289958 1  610             Rx   d 7 ED D1 00 F8 F3 FF 3A
   0.290640 1  350             Rx   d 8 00 60 00 10 00 80 14 E4
   0.292176 1  1A1             Rx   d 8 90 85 42 90 20 51 09 CB
   0.292688 1  726             Rx   d 8 00 00 00 00 58 00 00 00
   0.292944 1  727             Rx   d 8 00 00 FF 0F 00 00 00 00
   0.293200 1  728             Rx   d 8 00 00 00 00 00 00 00 00
   0.293414 1  729             Rx   d 8 76 34 FF 0F FF 0F 00 00
   0.293670 1  A6              Rx   d 7 EF 0F 7D 0F FE 00 20
   0.293883 1  A5              Rx   d 8 00 0F B4 AF 7D DC 00 32
   0.294139 1  2B0             Rx   d 8 01 1E 3C 0A 28 00 00 00
   0.294352 1  77              Rx   d 8 45 01 74 64 00 00 00 00
   0.294523 1  600             Rx   d 2 00 00
   0.294651 1  414             Rx   d 3 F0 06 94
   0.294907 1  1AB             Rx   d 8 B9 26 32 31 FC EB C0 00
   0.295120 1  202             Rx   d 8 01 00 40 21 01 8D 00 CA
   0.295376 1  655             Rx   d 8 02 04 55 56 65 45 02 00
   0.299984 1  610             Rx   d 7 ED D1 00 F9 F3 FF 3A
   0.300667 1  350             Rx   d 8 00 60 00 10 00 80 15 E5
   0.302160 1  1A1             Rx   d 8 90 85 42 90 20 51 0A BA
   0.303270 1  1AB             Rx   d 8 B9 26 32 31 FC EB C0 00
   0.303483 1  202             Rx   d 8 01 00 40 21 01 8D 00 CA
   0.303739 1  A6              Rx   d 7 98 00 7D 0F FE 00 20
   0.303952 1  A5              Rx   d 8 00 00 B4 AF 7D DC 00 32
   0.304208 1  2B0             Rx   d 8 01 1E 3C 0A 28 00 00 00
   0.304422 1  77              Rx   d 8 45 01 74 64 00 00 00 00
   0.304592 1  600             Rx   d 2 00 00
   0.304720 1  414             Rx   d 3 F0 06 94
   0.309968 1  610             Rx   d 7 ED D1 00 F9 F3 FF 3A
   0.310651 1  350             Rx   d 8 00 60 00 10 00 80 16 E6
   0.312144 1  1A1             Rx   d 8 90 85 42 90 20 51 0B 95
   0.313253 1  1AB             Rx   d 8 B9 26 32 31 FC EB C0 00
   0.313509 1  202             Rx   d 8 01 00 40 21 01 8D 00 CA
   0.313723 1  A6              Rx   d 7 76 01 7D 0F FE 00 20
   0.313936 1  A5              Rx   d 8 00 01 B4 AF 7D DC 00 32
   0.314192 1  2B0             Rx   d 8 01 1E 3C 0A 28 00 00 00
   0.314448 1  77              Rx   d 8 45 01 74 64 00 00 00 00
   0.314576 1  600             Rx   d 2 00 00
   0.314704 1  414             Rx   d 3 F0 06 94
   0.314960 1  114             Rx   d 8 01 00 00 01 02 03 04 05
   0.315216 1  726             Rx   d 8 00 00 00 00 58 00 00 00
   0.315472 1  727             Rx   d 8 00 00 FF 0F 00 00 00 00
   0.315728 1  728             Rx   d 8 00 00 00 00 00 00 00 00
   0.315941 1  729             Rx   d 8 76 34 FF 0F FF 0F 00 00
   0.316155 1  655             Rx   d 8 02 04 55 56 65 45 02 00
   0.319995 1  610             Rx   d 7 11 D2 00 80 F3 FF 3A
   0.320677 1  350             Rx   d 8 00 60 00 10 00 80 17 E7
   0.322171 1  1A1             Rx   d 8 90 85 42 90 20 51 0C 58
   0.323237 1  1AB             Rx   d 8 B9 26 32 31 FC EB C0 00
   0.323493 1  202             Rx   d 8 01 00 40 21 01 8D 00 CA
   0.323707 1  A6              Rx   d 7 6D 02 7D 0F FE 00 20
   0.323963 1  A5              Rx   d 8 00 02 B4 AF 7D DC 00 32
   0.324176 1  2B0             Rx   d 8 01 1E 3C 0A 28 00 00 00
   0.324432 1  77              Rx   d 8 45 01 74 64 00 00 00 00
   0.324560 1  600             Rx   d 2 00 00
   0.324731 1  414             Rx   d 3 F0 06 94
   0.329978 1  610             Rx   d 7 ED D1 00 80 F3 FF 3A
   0.330661 1  350             Rx   d 8 00 61 00 10 00 80 18 E9
   0.331898 1  630             Rx   d 3 01 00 24
   0.332154 1  1A0             Rx   d 8 04 40 00 24 00 00 09 E8
   0.332410 1  1A1             Rx   d 8 90 85 42 90 20 51 0D 77
   0.333264 1  1AB             Rx   d 8 B9 26 32 31 FC EB C0 00
   0.333520 1  202             Rx   d 8 01 00 40 21 01 8D 00 CA
   0.333733 1  A6              Rx   d 7 44 03 7D 0F FE 00 20
   0.333946 1  A5              Rx   d 8 00 03 B4 AF 7D DC 00 32
   0.334202 1  2B0             Rx   d 8 01 1E 3C 0A 28 00 00 00
   0.334458 1  77              Rx   d 8 45 01 74 64 00 00 00 00
   0.334586 1  600             Rx   d 2 00 00
   0.334714 1  414             Rx   d 3 F0 06 94
   0.336848 1  726             Rx   d 8 00 00 00 00 58 00 00 00
   0.337104 1  727             Rx   d 8 00 00 FF 0F 00 00 00 00
   0.337360 1  728             Rx   d 8 00 00 00 00 00 00 00 00
   0.337616 1  729             Rx   d 8 BE 34 FF 0F FF 0F 00 00
   0.337829 1  655             Rx   d 8 02 04 55 56 65 45 02 00
   0.339962 1  610             Rx   d 7 5C D1 00 80 F3 FF 3A
   0.340645 1  350             Rx   d 8 00 60 00 10 00 80 19 E9
   0.341968 1  640             Rx   d 6 E8 D3 07 F4 E9 03
   0.342181 1  1A1             Rx   d 8 90 85 42 90 20 51 0E 06
   0.343248 1  1AB             Rx   d 8 B9 26 32 31 FC EB C0 00
   0.343461 1  202             Rx   d 8 01 00 40 21 01 8D 00 CA
   0.343717 1  A6              Rx   d 7 2B 04 7D 0F FE 00 20
   0.343930 1  A5              Rx   d 8 00 04 B4 AF 7D DC 00 32
   0.344186 1  2B0             Rx   d 8 01 1E 3C 0A 28 00 00 00
   0.344400 1  77              Rx   d 8 45 01 74 64 00 00 00 00
   0.344570 1  600             Rx   d 2 00 00
   0.344698 1  414             Rx   d 3 F0 06 94
   0.349989 1  610             Rx   d 7 61 D3 00 80 F3 FF 3A
   0.350672 1  350             Rx   d 8 00 61 00 10 00 80 1A EB
   0.351866 1  650             Rx   d 2 4A 49
   0.352165 1  1A1             Rx   d 8 90 85 42 90 20 51 0F 29
   0.353231 1  1AB             Rx   d 8 B9 26 32 31 FC EB C0 00
   0.353487 1  202             Rx   d 8 01 00 40 21 01 8D 00 CA
   0.353701 1  A6              Rx   d 7 AB 05 7D 0F FE 00 20
   0.353914 1  A5              Rx   d 8 00 05 B4 AF 7D DC 00 32
   0.354170 1  2B0             Rx   d 8 01 1E 3C 0A 28 00 00 00
   0.354426 1  77              Rx   d 8 45 01 74 64 00 00 00 00
   0.354554 1  600             Rx   d 2 00 00
   0.354682 1  414             Rx   d 3 F0 06 94
   0.358565 1  726             Rx   d 8 00 00 00 00 58 00 00 00
   0.358821 1  727             Rx   d 8 00 00 FF 0F 00 00 00 00
   0.359077 1  728             Rx   d 8 00 00 00 00 00 00 00 00
   0.359290 1  729             Rx   d 8 BE 34 FF 0F FF 0F 00 00
   0.359546 1  655             Rx   d 8 02 04 55 56 65 45 02 00
   0.359973 1  610             Rx   d 7 11 D2 00 80 F3 FF 3A
   0.360655 1  350             Rx   d 8 00 61 00 10 00 80 1B EA
   0.362021 1  660             Rx   d 8 00 00 00 00 00 00 00 00
   0.362234 1  1A1             Rx   d 8 90 85 42 90 20 51 00 B3
   0.363258 1  1AB             Rx   d 8 B9 26 32 31 FC EB C0 00
   0.363471 1  202             Rx   d 8 01 00 40 21 01 8D 00 CA
   0.363685 1  A6              Rx   d 7 3D 06 7D 0F FE 00 20
   0.363941 1  A5              Rx   d 8 00 06 B4 AF 7D DC 00 32
   0.364154 1  2B0             Rx   d 8 01 1E 3C 0A 28 00 00 00
   0.364410 1  77              Rx   d 8 45 01 74 64 00 00 00 00
   0.364538 1  600             Rx   d 2 00 00
   0.364709 1  414             Rx   d 3 F0 06 94
   0.369957 1  610             Rx   d 7 ED D1 00 80 F3 FF 3A
   0.370682 1  350             Rx   d 8 00 61 00 10 00 80 1C ED
   0.372005 1  670             Rx   d 8 00 00 00 00 00 00 00 00
   0.372218 1  1A1             Rx   d 8 8F 85 42 90 20 51 01 B9
   0.373242 1  1AB             Rx   d 8 B9 26 32 31 FC EB C0 00
   0.373498 1  202             Rx   d 8 01 00 40 21 01 8E 00 CB
   0.373711 1  A6              Rx   d 7 6A 07 7D 0F FE 00 20
   0.373924 1  A5              Rx   d 8 00 07 B4 AF 7D DC 00 32
   0.374180 1  2B0             Rx   d 8 01 1E 3C 0A 28 00 00 00
   0.374436 1  77              Rx   d 8 45 01 74 64 00 00 00 00
   0.374564 1  600             Rx   d 2 00 00
   0.374692 1  414             Rx   d 3 F0 06 94
   0.379983 1  610             Rx   d 7 ED D1 00 80 F3 FF 3A
   0.380239 1  726             Rx   d 8 00 00 00 00 58 00 00 00
   0.380452 1  727             Rx   d 8 00 00 FF 0F 00 00 00 00
   0.380708 1  350             Rx   d 8 00 60 00 10 00 80 1D ED
   0.380964 1  728             Rx   d 8 00 00 00 00 00 00 00 00
   0.381178 1  729             Rx   d 8 BE 34 FF 0F FF 0F 00 00
   0.381434 1  655             Rx   d 8 02 04 55 56 65 45 02 00
   0.382159 1  1A0             Rx   d 8 04 40 00 24 00 00 0A 99
   0.382415 1  1A1             Rx   d 8 90 85 42 90 20 51 02 ED
   0.382628 1  5A0             Rx   d 8 0A 23 0D 00 00 00 00 00
   0.383268 1  1AB             Rx   d 8 B9 26 32 31 FC EB C0 00
   0.383482 1  202             Rx   d 8 01 00 40 21 01 8D 00 CB
   0.383695 1  A6              Rx   d 7 13 08 7D 0F FE 00 20
   0.383951 1  A5              Rx   d 8 00 08 B4 AF 7D DC 00 32
   0.384164 1  2B0             Rx   d 8 01 1E 3C 0A 28 00 00 00
   0.384420 1  77              Rx   d 8 45 01 74 64 00 00 00 00
   0.384548 1  600             Rx   d 2 00 00
   0.384719 1  414             Rx   d 3 F0 06 94
   0.389967 1  610             Rx   d 7 ED D1 00 80 F3 FF 3A
   0.390650 1  350             Rx   d 8 00 61 00 10 00 80 1E EF
   0.392143 1  1A1             Rx   d 8 90 85 42 90 20 51 03 C2
   0.393252 1  1AB             Rx   d 8 B9 26 32 31 FC EB C0 00
   0.393466 1  202             Rx   d 8 01 00 40 21 01 8D 00 CB
   0.393679 1  A6              Rx   d 7 B5 09 7D 0F FE 00 20
   0.393935 1  A5              Rx   d 8 00 09 B4 AF 7D DC 00 32
   0.394191 1  2B0             Rx   d 8 01 1E 3C 0A 28 00 00 00
   0.394404 1  77              Rx   d 8 45 01 74 64 00 00 00 00
   0.394532 1  600             Rx   d 2 00 00
   0.394703 1  414             Rx   d 3 F0 06 94
   0.399993 1  610             Rx   d 7 ED D1 00 80 F3 FF 3A
   0.400676 1  350             Rx   d 8 00 61 00 10 00 80 1F EE
   0.401785 1  726             Rx   d 8 00 00 00 00 58 00 00 00
   0.401999 1  727             Rx   d 8 00 00 FF 0F 00 00 00 00
   0.402255 1  1A1             Rx   d 8 90 85 42 90 20 51 04 0F
   0.402511 1  728             Rx   d 8 00 00 00 00 00 00 00 00
   0.402724 1  729             Rx   d 8 BE 34 FF 0F FF 0F 00 00
   0.402980 1  655             Rx   d 8 02 04 55 56 65 45 02 00
   0.403236 1  1AB             Rx   d 8 B9 26 32 31 FC EB C0 00
   0.403492 1  202             Rx   d 8 01 00 40 21 01 8E 00 CB
   0.403705 1  A6              Rx   d 7 B1 0A 7D 0F FE 00 20
   0.403919 1  A5              Rx   d 8 00 0A B4 AF 7D DC 00 32
   0.404175 1  2B0             Rx   d 8 01 1E 3C 0A 28 00 00 00
   0.404431 1  77              Rx   d 8 45 01 74 64 00 00 00 00
   0.404559 1  600             Rx   d 2 00 00
   0.404687 1  414             Rx   d 3 F0 06 94
   0.409977 1  610             Rx   d 7 0E D2 00 80 F3 FF 3A
   0.410660 1  350             Rx   d 8 00 60 00 10 00 80 10 E0
   0.412153 1  1A1             Rx   d 8 90 85 42 90 20 51 05 20
   0.413220 1  1AB             Rx   d 8 B9 26 32 31 FC EB C0 00
   0.413476 1  202             Rx   d 8 01 00 40 21 01 8E 00 CB
   0.413689 1  A6              Rx   d 7 AE 0B 7D 0F FE 00 20
   0.413945 1  A5              Rx   d 8 00 0B B4 AF 7D DC 00 32
   0.414159 1  2B0             Rx   d 8 01 1E 3C 0A 28 00 00 00
   0.414415 1  77              Rx   d 8 45 01 74 64 00 00 00 00
   0.414543 1  600             Rx   d 2 00 00
   0.414713 1  414             Rx   d 3 F0 06 94
   0.414969 1  114             Rx   d 8 01 00 00 01 02 03 04 05
   0.419961 1  610             Rx   d 7 14 D1 00 80 F3 FF 3A
   0.420686 1  350             Rx   d 8 00 60 00 10 00 80 11 E1
   0.422137 1  1A1             Rx   d 8 90 85 42 90 20 51 06 51
   0.423246 1  1AB             Rx   d 8 B9 26 32 31 FC EB C0 00
   0.423460 1  202             Rx   d 8 01 00 40 21 01 8D 00 CA
   0.423716 1  A6              Rx   d 7 E9 0C 7D 0F FE 00 20
   0.423929 1  A5              Rx   d 8 00 0C B4 AF 7D DC 00 32
   0.424185 1  2B0             Rx   d 8 01 1E 3C 0A 28 00 00 00
   0.424398 1  77              Rx   d 8 45 01 74 64 00 00 00 00
   0.424569 1  600             Rx   d 2 00 00
   0.424697 1  414             Rx   d 3 F0 06 94
   0.424953 1  726             Rx   d 8 00 00 00 00 58 00 00 00
   0.425209 1  727             Rx   d 8 00 00 FF 0F 00 00 00 00
   0.425422 1  728             Rx   d 8 00 00 00 00 00 00 00 00
   0.425678 1  729             Rx   d 8 BE 34 FF 0F FF 0F 00 00
   0.425892 1  655             Rx   d 8 02 04 55 56 65 45 02 00
   0.429988 1  610             Rx   d 7 74 D2 00 80 F3 FF 3A
   0.430670 1  350             Rx   d 8 00 61 00 10 00 80 12 E3
   0.431908 1  630             Rx   d 3 01 00 24
   0.432164 1  1A0             Rx   d 8 04 40 00 24 00 00 0B B6
   0.432420 1  1A1             Rx   d 8 90 85 42 90 20 51 07 7E
   0.433230 1  1AB             Rx   d 8 B9 26 32 31 FC EB C0 00
   0.433486 1  202             Rx   d 8 01 00 40 21 01 8D 00 CA
   0.433700 1  A6              Rx   d 7 EC 0D 7D 0F FE 00 20
   0.433913 1  A5              Rx   d 8 00 0D B4 AF 7D DC 00 32
   0.434169 1  2B0             Rx   d 8 01 1E 3C 0A 28 00 00 00
   0.434425 1  77              Rx   d 8 45 01 74 64 00 00 00 00
   0.434553 1  600             Rx   d 2 00 00
   0.434681 1  414             Rx   d 3 F0 06 94
   0.439971 1  610             Rx   d 7 ED D1 00 80 F3 FF 3A
   0.440654 1  350             Rx   d 8 00 60 00 10 00 80 13 E3
   0.441934 1  640             Rx   d 6 E8 D3 07 F4 E9 03
   0.442190 1  1A1             Rx   d 8 90 85 42 90 20 51 08 E4
   0.443214 1  1AB             Rx   d 8 B9 26 32 31 FC EB C0 00
   0.443470 1  202             Rx   d 8 01 00 40 21 01 8E 00 CA
   0.443683 1  A6              Rx   d 7 71 0E 7D 0F FE 00 20
   0.443897 1  A5              Rx   d 8 00 0E B4 AF 7D DC 00 32
   0.444153 1  2B0             Rx   d 8 01 1E 3C 0A 28 00 00 00
   0.444409 1  77              Rx   d 8 45 01 74 64 00 00 00 00
   0.444537 1  600             Rx   d 2 00 00
   0.444665 1  414             Rx   d 3 F0 06 94
   0.446499 1  726             Rx   d 8 00 00 00 00 58 00 00 00
   0.446755 1  727             Rx   d 8 00 00 FF 0F 00 00 00 00
   0.447011 1  728             Rx   d 8 00 00 00 00 00 00 00 00
   0.447225 1  729             Rx   d 8 BE 34 FF 0F FF 0F 00 00
   0.447481 1  655             Rx   d 8 02 04 55 56 65 45 02 00
   0.449955 1  610             Rx   d 7 ED D1 00 80 F3 FF 3A
   0.450681 1  350             Rx   d 8 00 60 00 10 00 80 14 E4
   0.452174 1  1A1             Rx   d 8 90 85 42 90 20 51 09 CB
   0.453241 1  1AB             Rx   d 8 B9 26 32 31 FC EB C0 00
   0.453454 1  202             Rx   d 8 01 00 40 21 01 8D 00 CA
   0.453667 1  A6              Rx   d 7 EF 0F 7D 0F FE 00 20
   0.453923 1  A5              Rx   d 8 00 0F B4 AF 7D DC 00 32
   0.454137 1  2B0             Rx   d 8 01 1E 3C 0A 28 00 00 00
   0.454393 1  77              Rx   d 8 45 01 74 64 00 00 00 00
   0.454521 1  600             Rx   d 2 00 00
   0.454691 1  414             Rx   d 3 F0 06 94
   0.459982 1  610             Rx   d 7 ED D1 00 80 F3 FF 3A
   0.460664 1  350             Rx   d 8 00 60 00 10 00 80 15 E5
   0.462158 1  1A1             Rx   d 8 90 85 42 90 20 51 0A BA
   0.463224 1  1AB             Rx   d 8 B9 26 32 31 FC EB C0 00
   0.463480 1  202             Rx   d 8 01 00 40 21 01 8D 00 CA
   0.463694 1  A6              Rx   d 7 98 00 7D 0F FE 00 20
   0.463907 1  A5              Rx   d 8 00 00 B4 AF 7D DC 00 32
   0.464163 1  2B0             Rx   d 8 01 1E 3C 0A 28 00 00 00
   0.464419 1  77              Rx   d 8 45 01 74 64 00 00 00 00
   0.464547 1  600             Rx   d 2 00 00
   0.464675 1  414             Rx   d 3 F0 06 94
   0.468174 1  726             Rx   d 8 00 00 00 00 58 00 00 00
   0.468387 1  727             Rx   d 8 00 00 FF 0F 00 00 00 00
   0.468643 1  728             Rx   d 8 00 00 00 00 00 00 00 00
   0.468899 1  729             Rx   d 8 BE 34 FF 0F FF 0F 00 00
   0.469112 1  655             Rx   d 8 02 04 55 56 65 45 02 00
   0.469966 1  610             Rx   d 7 C8 D1 00 F9 F3 FF 3A
   0.470648 1  350             Rx   d 8 00 61 00 10 00 80 16 E7
   0.472142 1  1A1             Rx   d 8 90 85 42 90 20 51 0B 95
   0.473208 1  1AB             Rx   d 8 B9 26 32 31 FC EB C0 00
   0.473464 1  202             Rx   d 8 01 00 40 21 01 8D 00 CA
   0.473678 1  A6              Rx   d 7 76 01 7D 0F FE 00 20
   0.473934 1  A5              Rx   d 8 00 01 B4 AF 7D DC 00 32
   0.474147 1  2B0             Rx   d 8 01 1E 3C 0A 28 00 00 00
   0.474403 1  77              Rx   d 8 45 01 74 64 00 00 00 00
   0.474531 1  600             Rx   d 2 00 00
   0.474702 1  414             Rx   d 3 F0 06 94
   0.479949 1  610             Rx   d 7 ED D1 00 F9 F3 FF 3A
   0.480675 1  350             Rx   d 8 00 60 00 10 00 80 17 E7
   0.482168 1  1A0             Rx   d 8 04 40 00 24 00 00 0C 7B
   0.482381 1  1A1             Rx   d 8 90 85 42 90 20 51 0C 58
   0.482637 1  5A0             Rx   d 8 0A 23 0D 00 00 00 00 00
   0.483235 1  1AB             Rx   d 8 B9 26 32 31 FC EB C0 00
   0.483448 1  202             Rx   d 8 01 00 40 21 01 8D 00 CA
   0.483704 1  A6              Rx   d 7 6D 02 7D 0F FE 00 20
   0.483917 1  A5              Rx   d 8 00 02 B4 AF 7D DC 00 32
   0.484173 1  2B0             Rx   d 8 01 1E 3C 0A 28 00 00 00
   0.484387 1  77              Rx   d 8 45 01 74 64 00 00 00 00
   0.484557 1  600             Rx   d 2 00 00
   0.484685 1  414             Rx   d 3 F0 06 94
   0.489805 1  726             Rx   d 8 00 00 00 00 58 00 00 00
   0.490019 1  610             Rx   d 7 11 D2 00 80 F3 FF 3A
   0.490275 1  727             Rx   d 8 00 00 FF 0F 00 00 00 00
   0.490531 1  728             Rx   d 8 00 00 00 00 00 00 00 00
   0.490744 1  350             Rx   d 8 00 60 00 10 00 80 18 E8
   0.491000 1  729             Rx   d 8 BE 34 FF 0F FF 0F 00 00
   0.491213 1  655             Rx   d 8 02 04 55 56 65 45 02 00
   0.492152 1  1A1             Rx   d 8 90 85 42 90 20 51 0D 77
   0.493219 1  1AB             Rx   d 8 B9 26 32 31 FC EB C0 00
   0.493475 1  202             Rx   d 8 01 00 40 21 01 8D 00 CA
   0.493688 1  A6              Rx   d 7 44 03 7D 0F FE 00 20
   0.493901 1  A5              Rx   d 8 00 03 B4 AF 7D DC 00 32
   0.494157 1  2B0             Rx   d 8 01 1E 3C 0A 28 00 00 00
   0.494413 1  77              Rx   d 8 45 01 74 64 00 00 00 00
   0.494541 1  600             Rx   d 2 00 00
   0.494669 1  414             Rx   d 3 F0 06 94
   0.499960 1  610             Rx   d 7 38 D1 00 80 F3 FF 3A
   0.500685 1  350             Rx   d 8 00 61 00 10 00 80 19 E8
   0.502136 1  1A1             Rx   d 8 90 85 42 90 20 51 0E 06
   0.503202 1  1AB             Rx   d 8 B9 26 32 31 FC EB C0 00
   0.503458 1  202             Rx   d 8 01 00 40 21 01 8D 00 CA
   0.503672 1  A6              Rx   d 7 2B 04 7D 0F FE 00 20
   0.503928 1  A5              Rx   d 8 00 04 B4 AF 7D DC 00 32
   0.504141 1  2B0             Rx   d 8 01 1E 3C 0A 28 00 00 00
   0.504397 1  77              Rx   d 8 45 01 74 64 00 00 00 00
   0.504525 1  600             Rx   d 2 00 00
   0.504696 1  414             Rx   d 3 F0 06 94
   0.509986 1  610             Rx   d 7 52 D2 00 80 F3 FF 3A
   0.510669 1  350             Rx   d 8 00 60 00 10 00 80 1A EA
   0.511693 1  726             Rx   d 8 00 00 00 00 58 00 00 00
   0.511949 1  727             Rx   d 8 00 00 FF 0F 00 00 00 00
   0.512162 1  1A1             Rx   d 8 8F 85 42 90 20 51 0F 0C
   0.512418 1  728             Rx   d 8 00 00 00 00 00 00 00 00
   0.512674 1  729             Rx   d 8 BE 34 FF 0F F6 0F 00 00
   0.512888 1  655             Rx   d 8 02 04 55 56 65 45 02 00
   0.513229 1  1AB             Rx   d 8 B9 26 32 31 FC EB C0 00
   0.513442 1  202             Rx   d 8 01 00 40 21 01 8D 00 CA
   0.513656 1  A6              Rx   d 7 AB 05 7D 0F FE 00 20
   0.513912 1  A5              Rx   d 8 00 05 B4 AF 7D DC 00 32
   0.514168 1  2B0             Rx   d 8 01 1E 3C 0A 28 00 00 00
   0.514381 1  77              Rx   d 8 45 01 74 64 00 00 00 00
   0.514509 1  600             Rx   d 2 00 00
   0.514680 1  414             Rx   d 3 F0 06 94
   0.514936 1  114             Rx   d 8 01 00 00 01 02 03 04 05
   0.519970 1  610             Rx   d 7 ED D1 00 80 F3 FF 3A
   0.520653 1  350             Rx   d 8 00 60 00 10 00 80 1B EB
   0.522146 1  1A1             Rx   d 8 8F 85 42 90 20 51 00 96
   0.523213 1  1AB             Rx   d 8 B9 26 32 31 FC EB C0 00
   0.523426 1  202             Rx   d 8 01 00 40 21 01 8D 00 CA
   0.523682 1  A6              Rx   d 7 3D 06 7D 0F FE 00 20
   0.523895 1  A5              Rx   d 8 00 06 B4 AF 7D DC 00 32
   0.524151 1  2B0             Rx   d 8 01 1E 3C 0A 28 00 00 00
   0.524365 1  77              Rx   d 8 45 01 74 64 00 00 00 00
   0.524535 1  600             Rx   d 2 00 00
   0.524663 1  414             Rx   d 3 F0 06 94
   0.529954 1  610             Rx   d 7 ED D1 00 BC F3 FF 3A
   0.530679 1  350             Rx   d 8 00 61 00 10 00 80 1C ED
   0.531917 1  630             Rx   d 3 01 00 24
   0.532173 1  1A0             Rx   d 8 04 40 00 24 00 00 0D 54
   0.532386 1  1A1             Rx   d 8 90 85 42 90 20 51 01 9C
   0.533197 1  1AB             Rx   d 8 B9 26 32 31 FC EB C0 00
   0.533453 1  202             Rx   d 8 01 00 40 21 01 8D 00 CA
   0.533666 1  A6              Rx   d 7 6A 07 7D 0F FE 00 20
   0.533922 1  A5              Rx   d 8 00 07 B4 AF 7D DC 00 32
   0.534135 1  2B0             Rx   d 8 01 1E 3C 0A 28 00 00 00
   0.534391 1  77              Rx   d 8 45 01 74 64 00 00 00 00
   0.534519 1  600             Rx   d 2 00 00
   0.534690 1  414             Rx   d 3 F0 06 94
   0.534903 1  726             Rx   d 8 00 00 00 00 58 00 00 00
   0.535159 1  727             Rx   d 8 00 00 FF 0F 00 00 00 00
   0.535415 1  728             Rx   d 8 00 00 00 00 00 00 00 00
   0.535671 1  729             Rx   d 8 BE 34 FF 0F F6 0F 00 00
   0.535885 1  655             Rx   d 8 02 04 55 56 65 45 02 00
   0.539981 1  610             Rx   d 7 33 D2 00 BC F3 FF 3A
   0.540663 1  350             Rx   d 8 00 60 00 10 00 80 1D ED
   0.541943 1  640             Rx   d 6 E8 D3 07 F4 E9 03
   0.542157 1  1A1             Rx   d 8 90 85 42 90 20 51 02 ED
   0.542413 1  333             Rx   d 8 00 00 00 00 00 00 00 00
   0.543223 1  1AB             Rx   d 8 B9 26 32 31 FC EB C0 00
   0.543436 1  202             Rx   d 8 01 00 40 21 01 8E 00 CA
   0.543650 1  A6              Rx   d 7 13 08 7D 0F FE 00 20
   0.543906 1  A5              Rx   d 8 00 08 B4 AF 7D DC 00 32
   0.544162 1  2B0             Rx   d 8 01 1E 3C 0A 28 00 00 00
   0.544375 1  77              Rx   d 8 45 01 74 64 00 00 00 00
   0.544503 1  600             Rx   d 2 00 00
   0.544674 1  414             Rx   d 3 F0 06 94
   0.549964 1  610             Rx   d 7 ED D1 00 BD F3 FF 3A
   0.550690 1  350             Rx   d 8 00 61 00 10 00 80 1E EF
   0.552183 1  1A1             Rx   d 8 8F 85 42 90 20 51 03 E7
   0.553207 1  1AB             Rx   d 8 B9 26 32 31 FC EB C0 00
   0.553463 1  202             Rx   d 8 01 00 40 21 01 8E 00 CA
   0.553676 1  A6              Rx   d 7 B5 09 7D 0F FE 00 20
   0.553890 1  A5              Rx   d 8 00 09 B4 AF 7D DC 00 32
   0.554146 1  2B0             Rx   d 8 01 1E 3C 0A 28 00 00 00
   0.554402 1  77              Rx   d 8 45 01 74 64 00 00 00 00
   0.554530 1  600             Rx   d 2 00 00
   0.554658 1  414             Rx   d 3 F0 06 94
   0.556492 1  726             Rx   d 8 00 00 00 00 58 00 00 00
   0.556706 1  727             Rx   d 8 00 00 FF 0F 00 00 00 00
   0.556962 1  728             Rx   d 8 00 00 00 00 00 00 00 00
   0.557218 1  729             Rx   d 8 BE 34 FF 0F F6 0F 00 00
   0.557431 1  655             Rx   d 8 02 04 55 56 65 45 02 00
   0.559948 1  610             Rx   d 7 B8 D2 00 BD F3 FF 3A
   0.560674 1  350             Rx   d 8 00 60 00 10 00 80 1F EF
   0.562167 1  1A1             Rx   d 8 8F 85 42 90 20 51 04 2A
   0.563191 1  1AB             Rx   d 8 B9 26 32 31 FC EB C0 00
   0.563404 1  202             Rx   d 8 01 00 40 21 01 8E 00 CA
   0.563660 1  A6              Rx   d 7 B1 0A 7D 0F FE 00 20
   0.563874 1  A5              Rx   d 8 00 0A B4 AF 7D DC 00 32
   0.564130 1  2B0             Rx   d 8 01 1E 3C 0A 28 00 00 00
   0.564343 1  77              Rx   d 8 45 01 74 64 00 00 00 00
   0.564514 1  600             Rx   d 2 00 00
   0.564641 1  414             Rx   d 3 F0 06 94
   0.569975 1  610             Rx   d 7 ED D1 00 BC F3 FF 3A
   0.570657 1  350             Rx   d 8 00 60 00 10 00 80 10 E0
   0.572151 1  1A1             Rx   d 8 8F 85 42 90 20 51 05 05
   0.573217 1  1AB             Rx   d 8 B9 26 32 31 FC EB C0 00
   0.573431 1  202             Rx   d 8 01 00 40 21 01 8E 00 CA
   0.573687 1  A6              Rx   d 7 AE 0B 7D 0F FE 00 20
   0.573900 1  A5              Rx   d 8 00 0B B4 AF 7D DC 00 32
   0.574156 1  2B0             Rx   d 8 01 1E 3C 0A 28 00 00 00
   0.574369 1  77              Rx   d 8 45 01 74 64 00 00 00 00
   0.574540 1  600             Rx   d 2 00 00
   0.574668 1  414             Rx   d 3 F0 06 94
   0.577996 1  726             Rx   d 8 00 00 00 00 58 00 00 00
   0.578209 1  727             Rx   d 8 00 00 FF 0F 00 00 00 00
   0.578465 1  728             Rx   d 8 00 00 00 00 00 00 00 00
   0.578721 1  729             Rx   d 8 BE 34 FF 0F F6 0F 00 00
   0.578935 1  655             Rx   d 8 02 04 55 56 65 45 02 00
   0.579959 1  610             Rx   d 7 5C D1 00 BC F3 FF 3A
   0.580684 1  350             Rx   d 8 00 61 00 10 00 80 11 E0
   0.582177 1  1A0             Rx   d 8 04 40 00 24 00 00 0E 25
   0.582391 1  1A1             Rx   d 8 8F 85 42 90 20 51 06 74
   0.582647 1  5A0             Rx   d 8 0A 23 0D 00 00 00 00 00
   0.583287 1  1AB             Rx   d 8 B9 26 32 31 FC EB C0 00
   0.583500 1  202             Rx   d 8 01 00 40 21 01 8E 00 CA
   0.583713 1  A6              Rx   d 7 E9 0C 7D 0F FE 00 20
   0.583969 1  A5              Rx   d 8 00 0C B4 AF 7D DC 00 32
   0.584183 1  2B0             Rx   d 8 01 1E 3C 0A 28 00 00 00
   0.584439 1  77              Rx   d 8 45 01 74 64 00 00 00 00
   0.584567 1  600             Rx   d 2 00 00
   0.584737 1  414             Rx   d 3 F0 06 94
   0.589985 1  610             Rx   d 7 ED D1 00 80 F3 FF 3A
   0.590668 1  350             Rx   d 8 00 61 00 10 00 80 12 E3
   0.592161 1  1A1             Rx   d 8 90 85 42 90 20 51 07 7E
   0.593185 1  1AB             Rx   d 8 B9 26 32 31 FC EB C0 00
   0.593441 1  202             Rx   d 8 01 00 40 21 01 8E 00 CA
   0.593654 1  A6              Rx   d 7 EC 0D 7D 0F FE 00 20
   0.593910 1  A5              Rx   d 8 00 0D B4 AF 7D DC 00 32
   0.594124 1  2B0             Rx   d 8 01 1E 3C 0A 28 00 00 00
   0.594380 1  77              Rx   d 8 45 01 74 64 00 00 00 00
   0.594508 1  600             Rx   d 2 00 00
   0.594678 1  414             Rx   d 3 F0 06 94
   0.599457 1  726             Rx   d 8 00 00 00 00 58 00 00 00
   0.599713 1  727             Rx   d 8 00 00 FF 0F 00 00 00 00
   0.599969 1  728             Rx   d 8 00 00 00 00 00 00 00 00
   0.600182 1  610             Rx   d 7 ED D1 00 80 F3 FF 3A
   0.600438 1  729             Rx   d 8 BE 34 FF 0F F6 0F 00 00
   0.600694 1  350             Rx   d 8 00 60 00 10 00 80 13 E3
   0.600908 1  655             Rx   d 8 02 04 55 56 65 45 02 00
   0.602145 1  1A1             Rx   d 8 8F 85 42 90 20 51 08 C1
   0.603212 1  1AB             Rx   d 8 B9 26 32 31 FC EB C0 00
   0.603425 1  202             Rx   d 8 01 00 40 21 01 8E 00 CA
   0.603681 1  A6              Rx   d 7 71 0E 7D 0F FE 00 20
   0.603894 1  A5              Rx   d 8 00 0E B4 AF 7D DC 00 32
   0.604150 1  2B0             Rx   d 8 01 1E 3C 0A 28 00 00 00
   0.604364 1  77              Rx   d 8 45 01 74 64 00 00 00 00
   0.604492 1  600             Rx   d 2 00 00
   0.604662 1  414             Rx   d 3 F0 06 94
   0.609953 1  610             Rx   d 7 0E D2 00 BC F3 FF 3A
   0.610678 1  350             Rx   d 8 00 60 00 10 00 80 14 E4
   0.612171 1  1A1             Rx   d 8 90 85 42 90 20 51 09 CB
   0.613195 1  1AB             Rx   d 8 B9 26 32 31 FC EB C0 00
   0.613409 1  202             Rx   d 8 01 00 40 21 01 8E 00 CA
   0.613665 1  A6              Rx   d 7 EF 0F 7D 0F FE 00 20
   0.613878 1  A5              Rx   d 8 00 0F B4 AF 7D DC 00 32
   0.614134 1  2B0             Rx   d 8 01 1E 3C 0A 28 00 00 00
   0.614347 1  77              Rx   d 8 45 01 74 64 00 00 00 00
   0.614518 1  600             Rx   d 2 00 00
   0.614646 1  414             Rx   d 3 F0 06 94
   0.614902 1  114             Rx   d 8 01 00 00 01 02 03 04 05
   0.619979 1  610             Rx   d 7 11 D2 00 BC F3 FF 3A
   0.620662 1  350             Rx   d 8 00 60 00 10 00 80 15 E5
   0.621003 1  726             Rx   d 8 00 00 00 00 58 00 00 00
   0.621259 1  727             Rx   d 8 00 00 FF 0F 00 00 00 00
   0.621515 1  728             Rx   d 8 00 00 00 00 00 00 00 00
   0.621771 1  729             Rx   d 8 BE 34 FF 0F F6 0F 00 00
   0.621985 1  655             Rx   d 8 02 04 55 56 65 45 02 00
   0.622198 1  1A1             Rx   d 8 8F 85 42 90 20 51 0A 9F
   0.623179 1  1AB             Rx   d 8 B9 26 32 31 FC EB C0 00
   0.623435 1  202             Rx   d 8 01 00 40 21 01 8E 00 CA
   0.623649 1  A6              Rx   d 7 98 00 7D 0F FE 00 20
   0.623905 1  A5              Rx   d 8 00 00 B4 AF 7D DC 00 32
   0.624118 1  2B0             Rx   d 8 01 1E 3C 0A 28 00 00 00
   0.624374 1  77              Rx   d 8 45 01 74 64 00 00 00 00
   0.624502 1  600             Rx   d 2 00 00
   0.624673 1  414             Rx   d 3 F0 06 94
   0.629963 1  610             Rx   d 7 ED D1 00 BC F3 FF 3A
   0.630688 1  350             Rx   d 8 00 60 00 10 00 80 16 E6
   0.631883 1  630             Rx   d 3 01 00 24
   0.632182 1  1A0             Rx   d 8 04 40 00 24 00 00 0F 0A
   0.632395 1  1A1             Rx   d 8 90 85 42 90 20 51 0B 95
   0.633206 1  1AB             Rx   d 8 B9 26 32 31 FC EB C0 00
   0.633419 1  202             Rx   d 8 01 00 40 21 01 8D 00 CA
   0.633675 1  A6              Rx   d 7 76 01 7D 0F FE 00 20
   0.633888 1  A5              Rx   d 8 00 01 B4 AF 7D DC 00 32
   0.634144 1  2B0             Rx   d 8 01 1E 3C 0A 28 00 00 00
   0.634358 1  77              Rx   d 8 45 01 74 64 00 00 00 00
   0.634528 1  600             Rx   d 2 00 00
   0.634656 1  414             Rx   d 3 F0 06 94
   0.639947 1  610             Rx   d 7 96 D2 00 80 F3 FF 3A
   0.640672 1  350             Rx   d 8 00 60 00 10 00 80 17 E7
   0.641952 1  640             Rx   d 6 E8 D3 07 F4 E9 03
   0.642166 1  1A1             Rx   d 8 90 85 42 90 20 51 0C 58
   0.642678 1  726             Rx   d 8 00 00 00 00 58 00 00 00
   0.642934 1  727             Rx   d 8 00 00 FF 0F 00 00 00 00
   0.643190 1  728             Rx   d 8 00 00 00 00 00 00 00 00
   0.643403 1  1AB             Rx   d 8 B9 26 32 31 FC EB C0 00
   0.643616 1  A6              Rx   d 7 6D 02 7D 0F FE 00 20
   0.643872 1  A5              Rx   d 8 00 02 B4 AF 7D DC 00 32
   0.644128 1  2B0             Rx   d 8 01 1E 3C 0A 28 00 00 00
   0.644342 1  77              Rx   d 8 45 01 74 64 00 00 00 00
   0.644470 1  600             Rx   d 2 00 00
   0.644640 1  414             Rx   d 3 F0 06 94
   0.644854 1  202             Rx   d 8 01 00 40 21 01 8D 00 CB
   0.645110 1  729             Rx   d 8 BE 34 FF 0F F6 0F 00 00
   0.645323 1  655             Rx   d 8 02 04 55 56 65 45 02 00
   0.649973 1  610             Rx   d 7 C8 D1 00 80 F3 FF 3A
   0.650656 1  350             Rx   d 8 00 60 00 10 00 80 18 E8
   0.652149 1  1A1             Rx   d 8 8F 85 42 90 20 51 0D 52
   0.653173 1  1AB             Rx   d 8 B9 26 32 31 FC EB C0 00
   0.653429 1  202             Rx   d 8 01 00 40 21 01 8D 00 CB
   0.653643 1  A6              Rx   d 7 44 03 7D 0F FE 00 20
   0.653899 1  A5              Rx   d 8 00 03 B4 AF 7D DC 00 32
   0.654112 1  2B0             Rx   d 8 01 1E 3C 0A 28 00 00 00
   0.654368 1  77              Rx   d 8 45 01 74 64 00 00 00 00
   0.654496 1  600             Rx   d 2 00 00
   0.654667 1  414             Rx   d 3 F0 06 94
   0.659957 1  610             Rx   d 7 A4 D1 00 BC F3 FF 3A
   0.660683 1  350             Rx   d 8 00 60 00 10 00 80 19 E9
   0.662176 1  1A1             Rx   d 8 90 85 42 90 20 51 0E 06
   0.663200 1  1AB             Rx   d 8 B9 26 32 31 FC EB C0 00
   0.663413 1  202             Rx   d 8 01 00 40 21 01 8D 00 CA
   0.663669 1  A6              Rx   d 7 2B 04 7D 0F FE 00 20
   0.663883 1  A5              Rx   d 8 00 04 B4 AF 7D DC 00 32
   0.664139 1  2B0             Rx   d 8 01 1E 3C 0A 28 00 00 00
   0.664352 1  77              Rx   d 8 45 01 74 64 00 00 00 00
   0.664523 1  600             Rx   d 2 00 00
   0.664651 1  414             Rx   d 3 F0 06 94
   0.664907 1  726             Rx   d 8 00 00 00 00 58 00 00 00
   0.665163 1  727             Rx   d 8 00 00 FA 0F 00 00 00 00
   0.665419 1  728             Rx   d 8 00 00 00 00 00 00 00 00
   0.665632 1  729             Rx   d 8 BE 34 FF 0F F6 0F 00 00
   0.665888 1  655             Rx   d 8 02 00 55 56 65 45 02 00
   0.669941 1  610             Rx   d 7 ED D1 00 BC F3 FF 3A
   0.670667 1  350             Rx   d 8 00 60 00 10 00 80 1A EA
   0.672160 1  1A1             Rx   d 8 8F 85 42 90 20 51 0F 0C
   0.673184 1  1AB             Rx   d 8 B9 26 32 31 FC EB C0 00
   0.673440 1  202             Rx   d 8 01 00 40 21 01 8D 00 CB
   0.673653 1  A6              Rx   d 7 AB 05 7D 0F FE 00 20
   0.673866 1  A5              Rx   d 8 00 05 B4 AF 7D DC 00 32
   0.674122 1  2B0             Rx   d 8 01 1E 3C 0A 28 00 00 00
   0.674378 1  77              Rx   d 8 45 01 74 64 00 00 00 00
   0.674506 1  600             Rx   d 2 00 00
   0.674634 1  414             Rx   d 3 F0 06 94
   0.679968 1  610             Rx   d 7 0E D2 00 BC F3 FF 3A
   0.680693 1  350             Rx   d 8 00 61 00 10 00 80 1B EA
   0.682186 1  1A0             Rx   d 8 04 40 00 24 00 00 00 90
   0.682400 1  1A1             Rx   d 8 8F 85 42 90 20 51 00 96
   0.682656 1  5A0             Rx   d 8 0A 23 0D 00 00 00 00 00
   0.683210 1  1AB             Rx   d 8 B9 26 32 31 FC EB C0 00
   0.683424 1  202             Rx   d 8 01 00 40 21 01 8D 00 CB
   0.683637 1  A6              Rx   d 7 3D 06 7D 0F FE 00 20
   0.683893 1  A5              Rx   d 8 00 06 B4 AF 7D DC 00 32
   0.684106 1  2B0             Rx   d 8 01 1E 3C 0A 28 00 00 00
   0.684362 1  77              Rx   d 8 45 01 74 64 00 00 00 00
   0.684490 1  600             Rx   d 2 00 00
   0.684661 1  414             Rx   d 3 F0 06 94
   0.686624 1  726             Rx   d 8 00 00 00 00 58 00 00 00
   0.686880 1  727             Rx   d 8 00 00 FA 0F 00 00 00 00
   0.687136 1  728             Rx   d 8 00 00 00 00 00 00 00 00
   0.687349 1  729             Rx   d 8 76 34 F4 0F FB 0F 00 00
   0.687605 1  655             Rx   d 8 02 00 55 56 65 45 02 00
   0.689952 1  610             Rx   d 7 0E D2 00 BC F3 FF 3A
   0.690677 1  350             Rx   d 8 00 60 00 10 00 80 1C EC
   0.692170 1  1A1             Rx   d 8 8F 85 42 90 20 51 01 B9
   0.693194 1  1AB             Rx   d 8 B9 26 32 31 FC EB C0 00
   0.693407 1  202             Rx   d 8 01 00 40 21 01 8D 00 CB
   0.693621 1  A6              Rx   d 7 6A 07 7D 0F FE 00 20
   0.693877 1  A5              Rx   d 8 00 07 B4 AF 7D DC 00 32
   0.694133 1  2B0             Rx   d 8 01 1E 3C 0A 28 00 00 00
   0.694346 1  77              Rx   d 8 45 01 74 64 00 00 00 00
   0.694474 1  600             Rx   d 2 00 00
   0.694645 1  414             Rx   d 3 F0 06 94
   0.699978 1  610             Rx   d 7 ED D1 00 F9 F3 FF 3A
   0.700661 1  350             Rx   d 8 00 60 00 10 00 80 1D ED
   0.702154 1  1A1             Rx   d 8 90 85 42 90 20 51 02 ED
   0.703178 1  1AB             Rx   d 8 B9 26 32 31 FC EB C0 00
   0.703391 1  202             Rx   d 8 01 00 40 21 01 8D 00 CA
   0.703647 1  A6              Rx   d 7 13 08 7D 0F FE 00 20
   0.703861 1  A5              Rx   d 8 00 08 B4 AF 7D DC 00 32
   0.704117 1  2B0             Rx   d 8 01 1E 3C 0A 28 00 00 00
   0.704330 1  77              Rx   d 8 45 01 74 64 00 00 00 00
   0.704501 1  600             Rx   d 2 00 00
   0.704629 1  414             Rx   d 3 F0 06 94
   0.708255 1  726             Rx   d 8 00 00 00 00 58 00 00 00
   0.708511 1  727             Rx   d 8 00 00 FA 0F 00 00 00 00
   0.708767 1  728             Rx   d 8 00 00 00 00 00 00 00 00
   0.708981 1  729             Rx   d 8 76 34 F4 0F FB 0F 00 00
   0.709237 1  655             Rx   d 8 02 00 55 56 65 45 02 00
   0.709962 1  610             Rx   d 7 C8 D1 00 F9 F3 FF 3A
   0.710687 1  350             Rx   d 8 00 60 00 10 00 80 1E EE
   0.712138 1  1A1             Rx   d 8 90 85 42 90 20 51 03 C2
   0.713162 1  1AB             Rx   d 8 B9 26 32 31 FC EB C0 00
   0.713418 1  202             Rx   d 8 01 00 40 21 01 8D 00 CA
   0.713631 1  A6              Rx   d 7 B5 09 7D 0F FE 00 20
   0.713845 1  A5              Rx   d 8 00 09 B4 AF 7D DC 00 32
   0.714100 1  2B0             Rx   d 8 01 1E 3C 0A 28 00 00 00
   0.714356 1  77              Rx   d 8 45 01 74 64 00 00 00 00
   0.714484 1  600             Rx   d 2 00 00
   0.714612 1  414             Rx   d 3 F0 06 94
   0.714868 1  114             Rx   d 8 01 00 00 01 02 03 04 05
   0.719946 1  610             Rx   d 7 BA D2 00 45 F3 FF 3A
   0.720671 1  350             Rx   d 8 00 61 00 10 00 80 1F EE
   0.722164 1  1A1             Rx   d 8 90 85 42 90 20 51 04 0F
   0.723188 1  1AB             Rx   d 8 B9 26 32 31 FC EB C0 00
   0.723402 1  202             Rx   d 8 01 00 40 21 01 8D 00 CA
   0.723615 1  A6              Rx   d 7 B1 0A 7D 0F FE 00 20
   0.723871 1  A5              Rx   d 8 00 0A B4 AF 7D DC 00 32
   0.724084 1  2B0             Rx   d 8 01 1E 3C 0A 28 00 00 00
   0.724340 1  77              Rx   d 8 45 01 74 64 00 00 00 00
   0.724468 1  600             Rx   d 2 00 00
   0.724639 1  414             Rx   d 3 F0 06 94
   0.729759 1  726             Rx   d 8 00 00 00 00 58 00 00 00
   0.729972 1  610             Rx   d 7 ED D1 00 45 F3 FF 3A
   0.730228 1  727             Rx   d 8 00 00 FA 0F 00 00 00 00
   0.730484 1  728             Rx   d 8 00 00 00 00 00 00 00 00
   0.730740 1  350             Rx   d 8 00 60 00 10 00 80 10 E0
   0.730954 1  729             Rx   d 8 76 34 F4 0F FB 0F 00 00
   0.731124 1  630             Rx   d 3 01 00 24
   0.731338 1  655             Rx   d 8 02 00 55 56 65 45 02 00
   0.732191 1  1A0             Rx   d 8 04 40 00 24 00 00 01 BF
   0.732404 1  1A1             Rx   d 8 8F 85 42 90 20 51 05 05
   0.733172 1  1AB             Rx   d 8 B9 26 32 31 FC EB C0 00
   0.733428 1  202             Rx   d 8 01 00 40 21 01 8C 00 CA
   0.733642 1  A6              Rx   d 7 AE 0B 7D 0F FE 00 20
   0.733898 1  A5              Rx   d 8 00 0B B4 AF 7D DC 00 32
   0.734111 1  2B0             Rx   d 8 01 1E 3C 0A 28 00 00 00
   0.734367 1  77              Rx   d 8 45 01 74 64 00 00 00 00
   0.734495 1  600             Rx   d 2 00 00
   0.734666 1  414             Rx   d 3 F0 06 94
   0.739956 1  610             Rx   d 7 ED D1 00 80 F3 FF 3A
   0.740681 1  350             Rx   d 8 00 60 00 10 00 80 11 E1
   0.741919 1  640             Rx   d 6 E8 D3 07 F4 E9 03
   0.742175 1  1A1             Rx   d 8 8F 85 42 90 20 51 06 74
   0.743156 1  1AB             Rx   d 8 B9 26 32 31 FC EB C0 00
   0.743412 1  202             Rx   d 8 01 00 40 21 01 8C 00 CA
   0.743625 1  A6              Rx   d 7 E9 0C 7D 0F FE 00 20
   0.743881 1  A5              Rx   d 8 00 0C B4 AF 7D DC 00 32
   0.744095 1  2B0             Rx   d 8 01 1E 3C 0A 28 00 00 00
   0.744351 1  77              Rx   d 8 45 01 74 64 00 00 00 00
   0.744479 1  600             Rx   d 2 00 00
   0.744649 1  414             Rx   d 3 F0 06 94
   0.749940 1  610             Rx   d 7 CB D1 00 80 F3 FF 3A
   0.750665 1  350             Rx   d 8 00 61 00 10 00 80 12 E3
   0.751519 1  726             Rx   d 8 00 00 00 00 58 00 00 00
   0.751775 1  727             Rx   d 8 00 00 FA 0F 00 00 00 00
   0.752031 1  728             Rx   d 8 00 00 00 00 00 00 00 00
   0.752244 1  1A1             Rx   d 8 8F 85 42 90 20 51 07 5B
   0.752457 1  729             Rx   d 8 76 34 F4 0F FB 0F 00 00
   0.752713 1  655             Rx   d 8 02 00 55 56 65 45 02 00
   0.753183 1  1AB             Rx   d 8 B9 26 32 31 FC EB C0 00
   0.753396 1  202             Rx   d 8 01 00 40 21 01 8D 00 CA
   0.753609 1  A6              Rx   d 7 EC 0D 7D 0F FE 00 20
   0.753865 1  A5              Rx   d 8 00 0D B4 AF 7D DC 00 32
   0.754121 1  2B0             Rx   d 8 01 1E 3C 0A 28 00 00 00
   0.754335 1  77              Rx   d 8 45 01 74 64 00 00 00 00
   0.754463 1  600             Rx   d 2 00 00
   0.754633 1  414             Rx   d 3 F0 06 94
   0.759966 1  610             Rx   d 7 11 D2 00 80 F3 FF 3A
   0.760692 1  350             Rx   d 8 00 60 00 10 00 80 13 E3
   0.762142 1  1A1             Rx   d 8 90 85 42 90 20 51 08 E4
   0.763166 1  1AB             Rx   d 8 B9 26 32 31 FC EB C0 00
   0.763422 1  202             Rx   d 8 01 00 40 21 01 8D 00 CA
   0.763636 1  A6              Rx   d 7 71 0E 7D 0F FE 00 20
   0.763849 1  A5              Rx   d 8 00 0E B4 AF 7D DC 00 32
   0.764105 1  2B0             Rx   d 8 01 1E 3C 0A 28 00 00 00
   0.764361 1  77              Rx   d 8 45 01 74 64 00 00 00 00
   0.764489 1  600             Rx   d 2 00 00
   0.764617 1  414             Rx   d 3 F0 06 94
   0.769950 1  610             Rx   d 7 0E D2 00 80 F3 FF 3A
   0.770676 1  350             Rx   d 8 00 61 00 10 00 80 14 E5
   0.772169 1  1A1             Rx   d 8 90 85 42 90 20 51 09 CB
   0.773022 1  726             Rx   d 8 00 00 00 00 58 00 00 00
   0.773278 1  727             Rx   d 8 00 00 FA 0F 00 00 00 00
   0.773492 1  A6              Rx   d 7 EF 0F 7D 0F FE 00 20
   0.773748 1  A5              Rx   d 8 00 0F B4 AF 7D DC 00 32
   0.773961 1  2B0             Rx   d 8 01 1E 3C 0A 28 00 00 00
   0.774217 1  77              Rx   d 8 45 01 74 64 00 00 00 00
   0.774345 1  600             Rx   d 2 00 00
   0.774516 1  414             Rx   d 3 F0 06 94
   0.774729 1  1AB             Rx   d 8 B9 26 32 31 FC EB C0 00
   0.774985 1  202             Rx   d 8 01 00 40 21 01 8D 00 CA
   0.775241 1  728             Rx   d 8 00 00 00 00 00 00 00 00
   0.775454 1  729             Rx   d 8 76 34 F4 0F FB 0F 00 00
   0.775710 1  655             Rx   d 8 02 00 55 56 65 45 02 00
   0.779977 1  610             Rx   d 7 11 D2 00 80 F3 FF 3A
   0.780659 1  350             Rx   d 8 00 60 00 10 00 80 15 E5
   0.782153 1  1A0             Rx   d 8 04 40 00 24 00 00 02 CE
   0.782409 1  1A1             Rx   d 8 8F 85 42 90 20 51 0A 9F
   0.782622 1  5A0             Rx   d 8 0A 23 0D 00 00 00 00 00
   0.783177 1  1AB             Rx   d 8 B9 26 32 31 FC EB C0 00
   0.783390 1  202             Rx   d 8 01 00 40 21 01 8D 00 CA
   0.783646 1  A6              Rx   d 7 98 00 7D 0F FE 00 20
   0.783859 1  A5              Rx   d 8 00 00 B4 AF 7D DC 00 32
   0.784115 1  2B0             Rx   d 8 01 1E 3C 0A 28 00 00 00
   0.784329 1  77              Rx   d 8 45 01 74 64 00 00 00 00
   0.784499 1  600             Rx   d 2 00 00
   0.784627 1  414             Rx   d 3 F0 06 94
   0.789961 1  610             Rx   d 7 CB D1 00 44 F3 FF 3A
   0.790686 1  350             Rx   d 8 00 60 00 10 00 80 16 E6
   0.792179 1  1A1             Rx   d 8 8F 85 42 90 20 51 0B B0
   0.793161 1  1AB             Rx   d 8 B9 26 32 31 FC EB C0 00
   0.793374 1  202             Rx   d 8 01 00 40 21 01 8D 00 CA
   0.793630 1  A6              Rx   d 7 76 01 7D 0F FE 00 20
   0.793843 1  A5              Rx   d 8 00 01 B4 AF 7D DC 00 32
   0.794099 1  2B0             Rx   d 8 01 1E 3C 0A 28 00 00 00
   0.794313 1  77              Rx   d 8 45 01 74 64 00 00 00 00
   0.794483 1  600             Rx   d 2 00 00
   0.794611 1  414             Rx   d 3 F0 06 94
   0.794867 1  726             Rx   d 8 00 00 00 00 58 00 00 00
   0.795123 1  727             Rx   d 8 00 00 FA 0F 00 00 00 00
   0.795379 1  728             Rx   d 8 00 00 00 00 00 00 00 00
   0.795593 1  729             Rx   d 8 76 34 F4 0F FB 0F 00 00
   0.795849 1  655             Rx   d 8 02 00 55 56 65 45 02 00
   0.799944 1  610             Rx   d 7 52 D2 00 44 F3 FF 3A
   0.800670 1  350             Rx   d 8 00 61 00 10 00 80 17 E6
   0.802163 1  1A1             Rx   d 8 90 85 42 90 20 51 0C 58
   0.803144 1  1AB             Rx   d 8 B9 26 32 31 FC EB C0 00
   0.803400 1  202             Rx   d 8 01 00 40 21 01 8D 00 CA
   0.803614 1  A6              Rx   d 7 6D 02 7D 0F FE 00 20
   0.803827 1  A5              Rx   d 8 00 02 B4 AF 7D DC 00 32
   0.804083 1  2B0             Rx   d 8 01 1E 3C 0A 28 00 00 00
   0.804339 1  77              Rx   d 8 45 01 74 64 00 00 00 00
   0.804467 1  600             Rx   d 2 00 00
   0.804595 1  414             Rx   d 3 F0 06 94
   0.809971 1  610             Rx   d 7 ED D1 00 80 F3 FF 3A
   0.810696 1  350             Rx   d 8 00 61 00 10 00 80 18 E9
   0.812147 1  1A1             Rx   d 8 8F 85 42 90 20 51 0D 52
   0.813171 1  1AB             Rx   d 8 B9 26 32 31 FC EB C0 00
   0.813384 1  202             Rx   d 8 01 00 40 21 01 8D 00 CA
   0.813598 1  A6              Rx   d 7 44 03 7D 0F FE 00 20
   0.813854 1  A5              Rx   d 8 00 03 B4 AF 7D DC 00 32
   0.814067 1  2B0             Rx   d 8 01 1E 3C 0A 28 00 00 00
   0.814323 1  77              Rx   d 8 45 01 74 64 00 00 00 00
   0.814451 1  600             Rx   d 2 00 00
   0.814622 1  414             Rx   d 3 F0 06 94
   0.814878 1  114             Rx   d 8 01 00 00 01 02 03 04 05
   0.816627 1  726             Rx   d 8 00 00 00 00 58 00 00 00
   0.816840 1  727             Rx   d 8 00 00 FA 0F 00 00 00 00
   0.817096 1  728             Rx   d 8 00 00 00 00 00 00 00 00
   0.817352 1  729             Rx   d 8 76 34 F4 0F FB 0F 00 00
   0.817566 1  655             Rx   d 8 02 00 55 56 65 45 02 00
   0.819955 1  610             Rx   d 7 ED D1 00 80 F3 FF 3A
   0.820680 1  350             Rx   d 8 00 61 00 10 00 80 19 E8
   0.822173 1  1A1             Rx   d 8 90 85 42 90 20 51 0E 06
   0.823155 1  1AB             Rx   d 8 B9 26 32 31 FC EB C0 00
   0.823411 1  202             Rx   d 8 01 00 40 21 01 8C 00 CA
   0.823624 1  A6              Rx   d 7 2B 04 7D 0F FE 00 20
   0.823880 1  A5              Rx   d 8 00 04 B4 AF 7D DC 00 32
   0.824093 1  2B0             Rx   d 8 01 1E 3C 0A 28 00 00 00
   0.824349 1  77              Rx   d 8 45 01 74 64 00 00 00 00
   0.824477 1  600             Rx   d 2 00 00
   0.824648 1  414             Rx   d 3 F0 06 94
   0.829939 1  610             Rx   d 7 ED D1 00 80 F3 FF 3A
   0.830664 1  350             Rx   d 8 00 60 00 10 00 80 1A EA
   0.831901 1  630             Rx   d 3 01 00 24
   0.832157 1  1A0             Rx   d 8 04 40 00 24 00 00 03 E1
   0.832413 1  1A1             Rx   d 8 90 85 42 90 20 51 0F 29
   0.833181 1  1AB             Rx   d 8 B9 26 32 31 FC EB C0 00
   0.833395 1  202             Rx   d 8 01 00 40 21 01 8C 00 CA
   0.833651 1  A6              Rx   d 7 AB 05 7D 0F FE 00 20
   0.833864 1  A5              Rx   d 8 00 05 B4 AF 7D DC 00 32
   0.834120 1  2B0             Rx   d 8 01 1E 3C 0A 28 00 00 00
   0.834333 1  77              Rx   d 8 45 01 74 64 00 00 00 00
   0.834504 1  600             Rx   d 2 00 00
   0.834632 1  414             Rx   d 3 F0 06 94
   0.838259 1  726             Rx   d 8 00 00 00 00 58 00 00 00
   0.838515 1  727             Rx   d 8 00 00 F8 0F 00 00 00 00
   0.838771 1  728             Rx   d 8 00 00 00 00 00 00 00 00
   0.838984 1  729             Rx   d 8 76 34 F4 0F FB 0F 00 00
   0.839240 1  655             Rx   d 8 02 00 55 56 65 45 02 00
   0.839965 1  610             Rx   d 7 ED D1 00 BC F3 FF 3A
   0.840691 1  350             Rx   d 8 00 60 00 10 00 80 1B EB
   0.841928 1  640             Rx   d 6 E8 D3 07 F4 E9 03
   0.842184 1  1A1             Rx   d 8 8F 85 42 90 20 51 00 96
   0.843165 1  1AB             Rx   d 8 B9 26 32 31 FC EB C0 00
   0.843378 1  202             Rx   d 8 01 00 40 21 01 8C 00 CA
   0.843634 1  A6              Rx   d 7 3D 06 7D 0F FE 00 20
   0.843848 1  A5              Rx   d 8 00 06 B4 AF 7D DC 00 32
   0.844104 1  2B0             Rx   d 8 01 1E 3C 0A 28 00 00 00
   0.844317 1  77              Rx   d 8 45 01 74 64 00 00 00 00
   0.844488 1  600             Rx   d 2 00 00
   0.844616 1  414             Rx   d 3 F0 06 94
   0.849949 1  610             Rx   d 7 0E D2 00 BC F3 FF 3A
   0.850674 1  350             Rx   d 8 00 60 00 10 00 80 1C EC
   0.852168 1  1A1             Rx   d 8 90 85 42 90 20 51 01 9C
   0.853149 1  1AB             Rx   d 8 B9 26 32 31 FC EB C0 00
   0.853405 1  202             Rx   d 8 01 00 40 21 01 8D 00 CA
   0.853618 1  A6              Rx   d 7 6A 07 7D 0F FE 00 20
   0.853832 1  A5              Rx   d 8 00 07 B4 AF 7D DC 00 32
   0.854088 1  2B0             Rx   d 8 01 1E 3C 0A 28 00 00 00
   0.854344 1  77              Rx   d 8 45 01 74 64 00 00 00 00
   0.854472 1  600             Rx   d 2 00 00
   0.854600 1  414             Rx   d 3 F0 06 94
   0.859890 1  726             Rx   d 8 00 00 00 00 58 00 00 00
   0.860146 1  610             Rx   d 7 ED D1 00 81 F3 FF 3A
   0.860360 1  727             Rx   d 8 00 00 F8 0F 00 00 00 00
   0.860616 1  728             Rx   d 8 00 00 00 00 00 00 00 00
   0.860872 1  350             Rx   d 8 00 60 00 10 00 80 1D ED
   0.861128 1  729             Rx   d 8 5E 34 FB 0F FF 0F 00 00
   0.861341 1  655             Rx   d 8 02 00 55 56 65 45 02 00
   0.862152 1  1A1             Rx   d 8 90 85 42 90 20 51 02 ED
   0.863133 1  1AB             Rx   d 8 B9 26 32 31 FC EB C0 00
   0.863389 1  202             Rx   d 8 01 00 40 21 01 8E 00 CA
   0.863602 1  A6              Rx   d 7 13 08 7D 0F FE 00 20
   0.863858 1  A5              Rx   d 8 00 08 B4 AF 7D DC 00 32
   0.864071 1  2B0             Rx   d 8 01 1E 3C 0A 28 00 00 00
   0.864327 1  77              Rx   d 8 45 01 74 64 00 00 00 00
   0.864455 1  600             Rx   d 2 00 00
   0.864626 1  414             Rx   d 3 F0 06 94
   0.869959 1  610             Rx   d 7 5C D1 00 81 F3 FF 3A
   0.870685 1  350             Rx   d 8 00 60 00 10 00 80 1E EE
   0.872135 1  1A1             Rx   d 8 90 85 42 90 20 51 03 C2
   0.873159 1  1AB             Rx   d 8 B9 26 32 31 FC EB C0 00
   0.873373 1  202             Rx   d 8 01 00 40 21 01 8D 00 CA
   0.873586 1  A6              Rx   d 7 B5 09 7D 0F FE 00 20
   0.873842 1  A5              Rx   d 8 00 09 B4 AF 7D DC 00 32
   0.874098 1  2B0             Rx   d 8 01 1E 3C 0A 28 00 00 00
   0.874311 1  77              Rx   d 8 45 01 74 64 00 00 00 00
   0.874439 1  600             Rx   d 2 00 00
   0.874610 1  414             Rx   d 3 F0 06 94
   0.879943 1  610             Rx   d 7 D9 D2 00 81 F3 FF 3A
   0.880669 1  350             Rx   d 8 00 61 00 10 00 80 1F EE
   0.881778 1  726             Rx   d 8 00 00 00 00 58 00 00 00
   0.882034 1  727             Rx   d 8 00 00 F8 0F 00 00 00 00
   0.882290 1  1A0             Rx   d 8 04 40 00 24 00 00 04 2C
   0.882503 1  1A1             Rx   d 8 90 85 42 90 20 51 04 0F
   0.882759 1  5A0             Rx   d 8 0A 23 0D 00 00 00 00 00
   0.883015 1  728             Rx   d 8 00 00 00 00 00 00 00 00
   0.883271 1  729             Rx   d 8 5E 34 FB 0F FF 0F 00 00
   0.883485 1  A6              Rx   d 7 B1 0A 7D 0F FE 00 20
   0.883698 1  A5              Rx   d 8 00 0A B4 AF 7D DC 00 32
   0.883954 1  2B0             Rx   d 8 01 1E 3C 0A 28 00 00 00
   0.884210 1  77              Rx   d 8 45 01 74 64 00 00 00 00
   0.884338 1  600             Rx   d 2 00 00
   0.884466 1  414             Rx   d 3 F0 06 94
   0.884722 1  1AB             Rx   d 8 B9 26 32 31 FC EB C0 00
   0.884935 1  202             Rx   d 8 01 00 40 21 01 8E 00 CA
   0.885191 1  655             Rx   d 8 02 00 55 56 65 45 02 00
   0.889970 1  610             Rx   d 7 ED D1 00 BC F3 FF 3A
   0.890695 1  350             Rx   d 8 00 60 00 10 00 80 10 E0
   0.892146 1  1A1             Rx   d 8 90 85 42 90 20 51 05 20
   0.893127 1  1AB             Rx   d 8 B9 26 32 31 FC EB C0 00
   0.893383 1  202             Rx   d 8 01 00 40 21 01 8E 00 CA
   0.893596 1  A6              Rx   d 7 AE 0B 7D 0F FE 00 20
   0.893810 1  A5              Rx   d 8 00 0B B4 AF 7D DC 00 32
   0.894066 1  2B0             Rx   d 8 01 1E 3C 0A 28 00 00 00
   0.894322 1  77              Rx   d 8 45 01 74 64 00 00 00 00
   0.894450 1  600             Rx   d 2 00 00
   0.894578 1  414             Rx   d 3 F0 06 94
   0.899954 1  610             Rx   d 7 ED D1 00 BC F3 FF 3A
   0.900679 1  350             Rx   d 8 00 60 00 10 00 80 11 E1
   0.902172 1  1A1             Rx   d 8 90 85 42 90 20 51 06 51
   0.903154 1  1AB             Rx   d 8 B9 26 32 31 FC EB C0 00
   0.903367 1  202             Rx   d 8 01 00 40 21 01 8D 00 CA
   0.903580 1  A6              Rx   d 7 E9 0C 7D 0F FE 00 20
   0.903836 1  A5              Rx   d 8 00 0C B4 AF 7D DC 00 32
   0.904092 1  2B0             Rx   d 8 01 1E 3C 0A 28 00 00 00
   0.904306 1  77              Rx   d 8 45 01 74 64 00 00 00 00
   0.904434 1  600             Rx   d 2 00 00
   0.904604 1  414             Rx   d 3 F0 06 94
   0.904860 1  726             Rx   d 8 00 00 00 00 58 00 00 00
   0.905074 1  727             Rx   d 8 00 00 F8 0F 00 00 00 00
   0.905330 1  728             Rx   d 8 00 00 00 00 00 00 00 00
   0.905586 1  729             Rx   d 8 5E 34 FB 0F FF 0F 00 00
   0.905799 1  655             Rx   d 8 02 00 55 56 65 45 02 00
   0.909937 1  610             Rx   d 7 ED D1 00 80 F3 FF 3A
   0.910663 1  350             Rx   d 8 00 61 00 10 00 80 12 E3
   0.912156 1  1A1             Rx   d 8 90 85 42 90 20 51 07 7E
   0.913137 1  1AB             Rx   d 8 B9 26 32 31 FC EB C0 00
   0.913393 1  202             Rx   d 8 01 00 40 21 01 8D 00 CA
   0.913607 1  A6              Rx   d 7 EC 0D 7D 0F FE 00 20
   0.913820 1  A5              Rx   d 8 00 0D B4 AF 7D DC 00 32
   0.914076 1  2B0             Rx   d 8 01 1E 3C 0A 28 00 00 00
   0.914332 1  77              Rx   d 8 45 01 74 64 00 00 00 00
   0.914460 1  600             Rx   d 2 00 00
   0.914588 1  414             Rx   d 3 F0 06 94
   0.914844 1  114             Rx   d 8 01 00 00 01 02 03 04 05
   0.919964 1  610             Rx   d 7 59 D2 00 80 F3 FF 3A
   0.920689 1  350             Rx   d 8 00 60 00 10 00 80 13 E3
   0.922140 1  1A1             Rx   d 8 90 85 42 90 20 51 08 E4
   0.923121 1  1AB             Rx   d 8 B9 26 32 31 FC EB C0 00
   0.923377 1  202             Rx   d 8 01 00 40 21 01 8D 00 CA
   0.923591 1  A6              Rx   d 7 71 0E 7D 0F FE 00 20
   0.923847 1  A5              Rx   d 8 00 0E B4 AF 7D DC 00 32
   0.924060 1  2B0             Rx   d 8 01 1E 3C 0A 28 00 00 00
   0.924316 1  77              Rx   d 8 45 01 74 64 00 00 00 00
   0.924444 1  600             Rx   d 2 00 00
   0.924615 1  414             Rx   d 3 F0 06 94
   0.926449 1  726             Rx   d 8 00 00 00 00 58 00 00 00
   0.926705 1  727             Rx   d 8 00 00 F8 0F 00 00 00 00
   0.926961 1  728             Rx   d 8 00 00 00 00 00 00 00 00
   0.927175 1  729             Rx   d 8 5E 34 FB 0F FF 0F 00 00
   0.927430 1  655             Rx   d 8 02 00 55 56 65 45 02 00
   0.929948 1  610             Rx   d 7 ED D1 00 44 F3 FF 3A
   0.930673 1  350             Rx   d 8 00 61 00 10 00 80 14 E5
   0.931868 1  630             Rx   d 3 01 00 24
   0.932166 1  1A0             Rx   d 8 04 40 00 24 00 00 05 03
   0.932380 1  1A1             Rx   d 8 90 85 42 90 20 51 09 CB
   0.933148 1  1AB             Rx   d 8 B9 26 32 31 FC EB C0 00
   0.933404 1  202             Rx   d 8 01 00 40 21 01 8D 00 CA
   0.933617 1  A6              Rx   d 7 EF 0F 7D 0F FE 00 20
   0.933830 1  A5              Rx   d 8 00 0F B4 AF 7D DC 00 32
   0.934086 1  2B0             Rx   d 8 01 1E 3C 0A 28 00 00 00
   0.934342 1  77              Rx   d 8 45 01 74 64 00 00 00 00
   0.934470 1  600             Rx   d 2 00 00
   0.934598 1  414             Rx   d 3 F0 06 94
   0.939932 1  610             Rx   d 7 ED D1 00 44 F3 FF 3A
   0.940657 1  350             Rx   d 8 00 60 00 10 00 80 15 E5
   0.940913 1  640             Rx   d 6 E8 D3 07 F4 E9 03
   0.942150 1  1A1             Rx   d 8 90 85 42 90 20 51 0A BA
   0.943132 1  1AB             Rx   d 8 B9 26 32 31 FC EB C0 00
   0.943388 1  202             Rx   d 8 01 00 40 21 01 8D 00 CA
   0.943601 1  A6              Rx   d 7 98 00 7D 0F FE 00 20
   0.943857 1  A5              Rx   d 8 00 00 B4 AF 7D DC 00 32
   0.944070 1  2B0             Rx   d 8 01 1E 3C 0A 28 00 00 00
   0.944326 1  77              Rx   d 8 45 01 74 64 00 00 00 00
   0.944454 1  600             Rx   d 2 00 00
   0.944625 1  414             Rx   d 3 F0 06 94
   0.947953 1  726             Rx   d 8 00 00 00 00 58 00 00 00
   0.948209 1  727             Rx   d 8 00 00 F8 0F 00 00 00 00
   0.948465 1  728             Rx   d 8 00 00 00 00 00 00 00 00
   0.948678 1  729             Rx   d 8 5E 34 FB 0F FF 0F 00 00
   0.948934 1  655             Rx   d 8 02 00 55 56 65 45 02 00
   0.949958 1  610             Rx   d 7 38 D1 00 80 F3 FF 3A
   0.950683 1  350             Rx   d 8 00 61 00 10 00 80 16 E7
   0.952134 1  1A1             Rx   d 8 90 85 42 90 20 51 0B 95
   0.953115 1  1AB             Rx   d 8 B9 26 32 31 FC EB C0 00
   0.953371 1  202             Rx   d 8 01 00 40 21 01 8D 00 CA
   0.953585 1  A6              Rx   d 7 76 01 7D 0F FE 00 20
   0.953841 1  A5              Rx   d 8 00 01 B4 AF 7D DC 00 32
   0.954054 1  2B0             Rx   d 8 01 1E 3C 0A 28 00 00 00
   0.954310 1  77              Rx   d 8 45 01 74 64 00 00 00 00
   0.954438 1  600             Rx   d 2 00 00
   0.954609 1  414             Rx   d 3 F0 06 94
   0.959942 1  610             Rx   d 7 1D D3 00 BC F3 FF 3A
   0.960667 1  350             Rx   d 8 00 60 00 10 00 80 17 E7
   0.962161 1  1A1             Rx   d 8 90 85 42 90 20 51 0C 58
   0.963142 1  1AB             Rx   d 8 B9 26 32 31 FC EB C0 00
   0.963355 1  202             Rx   d 8 01 00 40 21 01 8D 00 CA
   0.963611 1  A6              Rx   d 7 6D 02 7D 0F FE 00 20
   0.963825 1  A5              Rx   d 8 00 02 B4 AF 7D DC 00 32
   0.964081 1  2B0             Rx   d 8 01 1E 3C 0A 28 00 00 00
   0.964294 1  77              Rx   d 8 45 01 74 64 00 00 00 00
   0.964465 1  600             Rx   d 2 00 00
   0.964593 1  414             Rx   d 3 F0 06 94
   0.969457 1  726             Rx   d 8 00 00 00 00 58 00 00 00
   0.969713 1  727             Rx   d 8 00 00 F8 0F 00 00 00 00
   0.969968 1  728             Rx   d 8 00 00 00 00 00 00 00 00
   0.970182 1  610             Rx   d 7 ED D1 00 45 F3 FF 3A
   0.970438 1  729             Rx   d 8 5E 34 FB 0F FF 0F 00 00
   0.970651 1  655             Rx   d 8 02 00 55 56 65 45 02 00
   0.970907 1  350             Rx   d 8 00 60 00 10 00 80 18 E8
   0.972144 1  1A1             Rx   d 8 90 85 42 90 20 51 0D 77
   0.973126 1  1AB             Rx   d 8 B9 26 32 31 FC EB C0 00
   0.973339 1  202             Rx   d 8 01 00 40 21 01 8D 00 CA
   0.973595 1  A6              Rx   d 7 44 03 7D 0F FE 00 20
   0.973808 1  A5              Rx   d 8 00 03 B4 AF 7D DC 00 32
   0.974064 1  2B0             Rx   d 8 01 1E 3C 0A 28 00 00 00
   0.974278 1  77              Rx   d 8 45 01 74 64 00 00 00 00
   0.974448 1  600             Rx   d 2 00 00
   0.974576 1  414             Rx   d 3 F0 06 94
   0.979952 1  610             Rx   d 7 11 D2 00 45 F3 FF 3A
   0.980678 1  350             Rx   d 8 00 60 00 10 00 80 19 E9
   0.982171 1  1A0             Rx   d 8 04 40 00 24 00 00 06 72
   0.982384 1  1A1             Rx   d 8 90 85 42 90 20 51 0E 06
   0.982640 1  5A0             Rx   d 8 0A 23 0D 00 00 00 00 00
   0.983110 1  1AB             Rx   d 8 B9 26 32 31 FC EB C0 00
   0.983366 1  202             Rx   d 8 01 00 40 21 01 8D 00 CA
   0.983579 1  A6              Rx   d 7 2B 04 7D 0F FE 00 20
   0.983835 1  A5              Rx   d 8 00 04 B4 AF 7D DC 00 32
   0.984048 1  2B0             Rx   d 8 01 1E 3C 0A 28 00 00 00
   0.984304 1  77              Rx   d 8 45 01 74 64 00 00 00 00
   0.984432 1  600             Rx   d 2 00 00
   0.984603 1  414             Rx   d 3 F0 06 94
   0.989936 1  610             Rx   d 7 ED D1 00 BC F3 FF 3A
   0.990662 1  350             Rx   d 8 00 61 00 10 00 80 1A EB
   0.991174 1  726             Rx   d 8 00 00 00 00 58 00 00 00
   0.991429 1  727             Rx   d 8 00 00 F8 0F 00 00 00 00
   0.991643 1  728             Rx   d 8 00 00 00 00 00 00 00 00
   0.991899 1  729             Rx   d 8 5E 34 FB 0F FF 0F 00 00
   0.992155 1  655             Rx   d 8 02 00 55 56 65 45 02 00
   0.992368 1  1A1             Rx   d 8 90 85 42 90 20 51 0F 29
   0.993093 1  1AB             Rx   d 8 B9 26 32 31 FC EB C0 00
   0.993349 1  202             Rx   d 8 01 00 40 21 01 8D 00 CA
   0.993563 1  A6              Rx   d 7 AB 05 7D 0F FE 00 20
   0.993819 1  A5              Rx   d 8 00 05 B4 AF 7D DC 00 32
   0.994032 1  2B0             Rx   d 8 01 1E 3C 0A 28 00 00 00
   0.994288 1  77              Rx   d 8 45 01 74 64 00 00 00 00
   0.994416 1  600             Rx   d 2 00 00
   0.994587 1  414             Rx   d 3 F0 06 94
   0.999969 1  610             Rx   d 7 ED D1 00 BC F3 FF 3A
   1.000694 1  350             Rx   d 8 00 60 00 10 00 80 1B EB
   1.002145 1  1A1             Rx   d 8 90 85 42 90 20 51 00 B3
   1.003126 1  1AB             Rx   d 8 B9 26 32 31 FC EB C0 00
   1.003382 1  202             Rx   d 8 01 00 40 21 01 8D 00 CA
   1.003595 1  A6              Rx   d 7 3D 06 7D 0F FE 00 20
   1.003809 1  A5              Rx   d 8 00 06 B4 AF 7D DC 00 32
   1.004065 1  2B0             Rx   d 8 01 1E 3C 0A 28 00 00 00
   1.004321 1  77              Rx   d 8 45 01 74 64 00 00 00 00
   1.004449 1  600             Rx   d 2 00 00
   1.004577 1  414             Rx   d 3 F0 06 94
   1.009953 1  610             Rx   d 7 ED D1 00 80 F3 FF 3A
   1.010678 1  350             Rx   d 8 00 60 00 10 00 80 1C EC
   1.012171 1  1A1             Rx   d 8 90 85 42 90 20 51 01 9C
   1.012854 1  726             Rx   d 8 00 00 00 00 58 00 00 00
   1.013067 1  727             Rx   d 8 00 00 FF 0F 00 00 00 00
   1.013323 1  728             Rx   d 8 00 00 00 00 00 00 00 00
   1.013579 1  A6              Rx   d 7 6A 07 7D 0F FE 00 20
   1.013792 1  A5              Rx   d 8 00 07 B4 AF 7D DC 00 32
   1.014048 1  2B0             Rx   d 8 01 1E 3C 0A 28 00 00 00
   1.014262 1  77              Rx   d 8 45 01 74 64 00 00 00 00
   1.014432 1  600             Rx   d 2 00 00
   1.014560 1  414             Rx   d 3 F0 06 94
   1.014774 1  1AB             Rx   d 8 B9 26 32 31 FC EB C0 00
   1.015030 1  202             Rx   d 8 01 00 40 21 01 8D 00 CA
   1.015286 1  114             Rx   d 8 01 00 00 01 02 03 04 05
   1.015499 1  729             Rx   d 8 5E 34 FB 0F FF 0F 00 00
   1.015755 1  655             Rx   d 8 02 04 55 56 65 45 02 00
   1.019936 1  610             Rx   d 7 ED D1 00 80 F3 FF 3A
   1.020704 1  350             Rx   d 8 00 60 00 10 00 80 1D ED
   1.022155 1  1A1             Rx   d 8 90 85 42 90 20 51 02 ED
   1.023136 1  1AB             Rx   d 8 B9 26 32 31 FC EB C0 00
   1.023350 1  202             Rx   d 8 01 00 40 21 01 8D 00 CA
   1.023606 1  A6              Rx   d 7 13 08 7D 0F FE 00 20
   1.023819 1  A5              Rx   d 8 00 08 B4 AF 7D DC 00 32
   1.024075 1  2B0             Rx   d 8 01 1E 3C 0A 28 00 00 00
   1.024288 1  77              Rx   d 8 45 01 74 64 00 00 00 00
   1.024459 1  600             Rx   d 2 00 00
   1.024587 1  414             Rx   d 3 F0 06 94
   1.029963 1  610             Rx   d 7 38 D1 00 80 F3 FF 3A
   1.030688 1  350             Rx   d 8 00 60 00 10 00 80 1E EE
   1.030859 1  630             Rx   d 3 01 00 24
   1.032182 1  1A0             Rx   d 8 04 40 00 24 00 00 07 5D
   1.032395 1  1A1             Rx   d 8 90 85 42 90 20 51 03 C2
   1.033120 1  1AB             Rx   d 8 B9 26 32 31 FC EB C0 00
   1.033376 1  202             Rx   d 8 01 00 40 21 01 8E 00 CA
   1.033590 1  A6              Rx   d 7 B5 09 7D 0F FE 00 20
   1.033846 1  A5              Rx   d 8 00 09 B4 AF 7D DC 00 32
   1.034059 1  2B0             Rx   d 8 01 1E 3C 0A 28 00 00 00
   1.034315 1  77              Rx   d 8 45 01 74 64 00 00 00 00
   1.034443 1  600             Rx   d 2 00 00
   1.034613 1  414             Rx   d 3 F0 06 94
   1.034827 1  726             Rx   d 8 00 00 00 00 58 00 00 00
   1.035083 1  727             Rx   d 8 00 00 FF 0F 00 00 00 00
   1.035339 1  728             Rx   d 8 00 00 00 00 00 00 00 00
   1.035595 1  729             Rx   d 8 7E 34 FF 0F FF 0F 00 00
   1.035808 1  655             Rx   d 8 02 04 55 56 65 45 02 00
   1.039947 1  610             Rx   d 7 1D D3 00 80 F3 FF 3A
   1.040672 1  350             Rx   d 8 00 60 00 10 00 80 1F EF
   1.040928 1  640             Rx   d 6 E8 D3 07 F4 E9 03
   1.042165 1  1A1             Rx   d 8 90 85 42 90 20 51 04 0F
   1.043147 1  1AB             Rx   d 8 B9 26 32 31 FC EB C0 00
   1.043360 1  202             Rx   d 8 01 00 40 21 01 8D 00 CA
   1.043573 1  A6              Rx   d 7 B1 0A 7D 0F FE 00 20
   1.043829 1  A5              Rx   d 8 00 0A B4 AF 7D DC 00 32
   1.044043 1  2B0             Rx   d 8 01 1E 3C 0A 28 00 00 00
   1.044299 1  77              Rx   d 8 45 01 74 64 00 00 00 00
   1.044427 1  600             Rx   d 2 00 00
   1.044597 1  414             Rx   d 3 F0 06 94
   1.049931 1  610             Rx   d 7 ED D1 00 BC F3 FF 3A
   1.050699 1  350             Rx   d 8 00 60 00 10 00 80 10 E0
   1.052149 1  1A1             Rx   d 8 90 85 42 90 20 51 05 20
   1.053131 1  1AB             Rx   d 8 B9 26 32 31 FC EB C0 00
   1.053344 1  202             Rx   d 8 01 00 40 21 01 8D 00 CA
   1.053600 1  A6              Rx   d 7 AE 0B 7D 0F FE 00 20
   1.053813 1  A5              Rx   d 8 00 0B B4 AF 7D DC 00 32
   1.054069 1  2B0             Rx   d 8 01 1E 3C 0A 28 00 00 00
   1.054283 1  77              Rx   d 8 45 01 74 64 00 00 00 00
   1.054411 1  600             Rx   d 2 00 00
   1.054581 1  414             Rx   d 3 F0 06 94
   1.056245 1  726             Rx   d 8 00 00 00 00 5B 00 00 00
   1.056501 1  727             Rx   d 8 00 00 FF 0F 00 00 00 00
   1.056757 1  728             Rx   d 8 00 00 00 00 00 00 00 00
   1.056970 1  729             Rx   d 8 7E 34 FF 0F FF 0F 00 00
   1.057226 1  655             Rx   d 8 02 04 55 56 65 45 02 00
   1.059957 1  610             Rx   d 7 0E D2 00 BC F3 FF 3A
   1.060682 1  350             Rx   d 8 00 60 00 10 00 80 11 E1
   1.062176 1  1A1             Rx   d 8 90 85 42 90 20 51 06 51
   1.063114 1  1AB             Rx   d 8 B9 26 32 31 FC EB C0 00
   1.063328 1  202             Rx   d 8 01 00 40 21 01 8E 00 CA
   1.063584 1  A6              Rx   d 7 E9 0C 7D 0F FE 00 20
   1.063797 1  A5              Rx   d 8 00 0C B4 AF 7D DC 00 32
   1.064053 1  2B0             Rx   d 8 01 1E 3C 0A 28 00 00 00
   1.064266 1  77              Rx   d 8 45 01 74 64 00 00 00 00
   1.064437 1  600             Rx   d 2 00 00
   1.064565 1  414             Rx   d 3 F0 06 94
   1.069941 1  610             Rx   d 7 59 D2 00 80 F3 FF 3A
   1.070666 1  350             Rx   d 8 00 60 00 10 00 80 12 E2
   1.072160 1  1A1             Rx   d 8 90 85 42 90 20 51 07 7E
   1.073098 1  1AB             Rx   d 8 B9 26 32 31 FC EB C0 00
   1.073354 1  202             Rx   d 8 01 00 40 21 01 8E 00 CA
   1.073568 1  A6              Rx   d 7 EC 0D 7D 0F FE 00 20
   1.073781 1  A5              Rx   d 8 00 0D B4 AF 7D DC 00 32
   1.074037 1  2B0             Rx   d 8 01 1E 3C 0A 28 00 00 00
   1.074293 1  77              Rx   d 8 45 01 74 64 00 00 00 00
   1.074421 1  600             Rx   d 2 00 00
   1.074549 1  414             Rx   d 3 F0 06 94
   1.077578 1  726             Rx   d 8 00 00 00 00 5B 00 00 00
   1.077834 1  727             Rx   d 8 00 00 FF 0F 00 00 00 00
   1.078047 1  728             Rx   d 8 00 00 00 00 00 00 00 00
   1.078303 1  729             Rx   d 8 7E 34 FF 0F FF 0F 00 00
   1.078517 1  655             Rx   d 8 02 04 55 56 65 45 02 00
   1.079967 1  610             Rx   d 7 CB D1 00 80 F3 FF 3A
   1.080693 1  350             Rx   d 8 00 60 00 10 00 80 13 E3
   1.082186 1  1A0             Rx   d 8 04 40 00 24 00 00 08 C7
   1.082399 1  1A1             Rx   d 8 90 85 42 90 20 51 08 E4
   1.082655 1  5A0             Rx   d 8 0A 23 0D 00 00 00 00 00
   1.083125 1  1AB             Rx   d 8 B9 26 32 31 FC EB C0 00
   1.083338 1  202             Rx   d 8 01 00 40 21 01 8E 00 CA
   1.083551 1  A6              Rx   d 7 71 0E 7D 0F FE 00 20
   1.083807 1  A5              Rx   d 8 00 0E B4 AF 7D DC 00 32
   1.084021 1  2B0             Rx   d 8 01 1E 3C 0A 28 00 00 00
   1.084277 1  77              Rx   d 8 45 01 74 64 00 00 00 00
   1.084405 1  600             Rx   d 2 00 00
   1.084575 1  414             Rx   d 3 F0 06 94
   1.089951 1  610             Rx   d 7 ED D1 00 80 F3 FF 3A
   1.090677 1  350             Rx   d 8 00 60 00 10 00 80 14 E4
   1.092170 1  1A1             Rx   d 8 90 85 42 90 20 51 09 CB
   1.093109 1  1AB             Rx   d 8 B9 26 32 31 FC EB C0 00
   1.093365 1  202             Rx   d 8 01 00 40 21 01 8E 00 CA
   1.093578 1  A6              Rx   d 7 EF 0F 7D 0F FE 00 20
   1.093791 1  A5              Rx   d 8 00 0F B4 AF 7D DC 00 32
   1.094047 1  2B0             Rx   d 8 01 1E 3C 0A 28 00 00 00
   1.094303 1  77              Rx   d 8 45 01 74 64 00 00 00 00
   1.094431 1  600             Rx   d 2 00 00
   1.094559 1  414             Rx   d 3 F0 06 94
   1.099082 1  726             Rx   d 8 00 00 00 00 5B 00 00 00
   1.099295 1  727             Rx   d 8 00 00 FF 0F 00 00 00 00
   1.099551 1  728             Rx   d 8 00 00 00 00 00 00 00 00
   1.099807 1  729             Rx   d 8 7E 34 FF 0F FF 0F 00 00
   1.100020 1  610             Rx   d 7 0E D2 00 80 F3 FF 3A
   1.100234 1  655             Rx   d 8 02 04 55 56 65 45 02 00
   1.100703 1  350             Rx   d 8 00 60 00 10 00 80 15 E5
   1.102154 1  1A1             Rx   d 8 90 85 42 90 20 51 0A BA
   1.103092 1  1AB             Rx   d 8 B9 26 32 31 FC EB C0 00
   1.103306 1  202             Rx   d 8 01 00 40 21 01 8E 00 CA
   1.103562 1  A6              Rx   d 7 98 00 7D 0F FE 00 20
   1.103775 1  A5              Rx   d 8 00 00 B4 AF 7D DC 00 32
   1.104031 1  2B0             Rx   d 8 01 1E 3C 0A 28 00 00 00
   1.104244 1  77              Rx   d 8 45 01 74 64 00 00 00 00
   1.104415 1  600             Rx   d 2 00 00
   1.104543 1  414             Rx   d 3 F0 06 94
   1.109962 1  610             Rx   d 7 38 D1 00 80 F3 FF 3A
   1.110687 1  350             Rx   d 8 00 60 00 10 00 80 16 E6
   1.112180 1  1A1             Rx   d 8 90 85 42 90 20 51 0B 95
   1.113119 1  1AB             Rx   d 8 B9 26 32 31 FC EB C0 00
   1.113332 1  202             Rx   d 8 01 00 40 21 01 8E 00 CA
   1.113588 1  A6              Rx   d 7 76 01 7D 0F FE 00 20
   1.113802 1  A5              Rx   d 8 00 01 B4 AF 7D DC 00 32
   1.114058 1  2B0             Rx   d 8 01 1E 3C 0A 28 00 00 00
   1.114271 1  77              Rx   d 8 45 01 74 64 00 00 00 00
   1.114442 1  600             Rx   d 2 00 00
   1.114570 1  414             Rx   d 3 F0 06 94
   1.114826 1  114             Rx   d 8 01 00 00 01 02 03 04 05
   1.119945 1  610             Rx   d 7 96 D2 00 45 F3 FF 3A
   1.120585 1  726             Rx   d 8 00 00 00 00 5B 00 00 00
   1.120799 1  350             Rx   d 8 00 60 00 10 00 80 17 E7
   1.121055 1  727             Rx   d 8 00 00 FF 0F 00 00 00 00
   1.121311 1  728             Rx   d 8 00 00 00 00 00 00 00 00
   1.121524 1  729             Rx   d 8 7E 34 FF 0F FF 0F 00 00
   1.121780 1  655             Rx   d 8 02 04 55 56 65 45 02 00
   1.122164 1  1A1             Rx   d 8 90 85 42 90 20 51 0C 58
   1.123188 1  1AB             Rx   d 8 B9 26 32 31 FC EB C0 00
   1.123401 1  202             Rx   d 8 01 00 40 21 01 8E 00 CA
   1.123615 1  A6              Rx   d 7 6D 02 7D 0F FE 00 20
   1.123871 1  A5              Rx   d 8 00 02 B4 AF 7D DC 00 32
   1.124084 1  2B0             Rx   d 8 01 1E 3C 0A 28 00 00 00
   1.124340 1  77              Rx   d 8 45 01 74 64 00 00 00 00
   1.124468 1  600             Rx   d 2 00 00
   1.124639 1  414             Rx   d 3 F0 06 94
   1.129929 1  610             Rx   d 7 ED D1 00 45 F3 FF 3A
   1.130697 1  350             Rx   d 8 00 60 00 10 00 80 18 E8
   1.130868 1  630             Rx   d 3 01 00 24
   1.132191 1  1A0             Rx   d 8 04 40 00 24 00 00 09 E8
   1.132404 1  1A1             Rx   d 8 90 85 42 90 20 51 0D 77
   1.133129 1  1AB             Rx   d 8 B9 26 32 31 FC EB C0 00
   1.133343 1  202             Rx   d 8 01 00 40 21 01 8E 00 CA
   1.133556 1  A6              Rx   d 7 44 03 7D 0F FE 00 20
   1.133812 1  A5              Rx   d 8 00 03 B4 AF 7D DC 00 32
   1.134068 1  2B0             Rx   d 8 01 1E 3C 0A 28 00 00 00
   1.134281 1  77              Rx   d 8 45 01 74 64 00 00 00 00
   1.134409 1  600             Rx   d 2 00 00
   1.134580 1  414             Rx   d 3 F0 06 94
   1.139956 1  610             Rx   d 7 ED D1 00 80 F3 FF 3A
   1.140681 1  350             Rx   d 8 00 60 00 10 00 80 19 E9
   1.140937 1  640             Rx   d 6 E8 D3 07 F4 E9 03
   1.142174 1  1A1             Rx   d 8 90 85 42 90 20 51 0E 06
   1.142388 1  726             Rx   d 8 00 00 00 00 5B 00 00 00
   1.142644 1  727             Rx   d 8 00 00 FF 0F 00 00 00 00
   1.142900 1  728             Rx   d 8 00 00 00 00 00 00 00 00
   1.143156 1  729             Rx   d 8 7E 34 FF 0F FF 0F 00 00
   1.143369 1  1AB             Rx   d 8 B9 26 32 31 FC EB C0 00
   1.143582 1  A6              Rx   d 7 2B 04 7D 0F FE 00 20
   1.143838 1  A5              Rx   d 8 00 04 B4 AF 7D DC 00 32
   1.144052 1  2B0             Rx   d 8 01 1E 3C 0A 28 00 00 00
   1.144308 1  77              Rx   d 8 45 01 74 64 00 00 00 00
   1.144436 1  600             Rx   d 2 00 00
   1.144606 1  414             Rx   d 3 F0 06 94
   1.144820 1  202             Rx   d 8 01 00 40 21 01 8D 00 CA
   1.145076 1  655             Rx   d 8 02 04 55 56 65 45 02 00
   1.149940 1  610             Rx   d 7 ED D1 00 80 F3 FF 3A
   1.150708 1  350             Rx   d 8 00 60 00 10 00 80 1A EA
   1.152158 1  1A1             Rx   d 8 90 85 42 90 20 51 0F 29
   1.153097 1  1AB             Rx   d 8 B9 26 32 31 FC EB C0 00
   1.153310 1  202             Rx   d 8 01 00 40 21 01 8D 00 CA
   1.153566 1  A6              Rx   d 7 AB 05 7D 0F FE 00 20
   1.153780 1  A5              Rx   d 8 00 05 B4 AF 7D DC 00 32
   1.154036 1  2B0             Rx   d 8 01 1E 3C 0A 28 00 00 00
   1.154249 1  77              Rx   d 8 45 01 74 64 00 00 00 00
   1.154420 1  600             Rx   d 2 00 00
   1.154548 1  414             Rx   d 3 F0 06 94
   1.159924 1  610             Rx   d 7 11 D2 00 80 F3 FF 3A
   1.160692 1  350             Rx   d 8 00 60 00 10 00 80 1B EB
   1.162142 1  1A1             Rx   d 8 90 85 42 90 20 51 00 B3
   1.163081 1  1AB             Rx   d 8 B9 26 32 31 FC EB C0 00
   1.163337 1  202             Rx   d 8 01 00 40 21 01 8D 00 CA
   1.163550 1  A6              Rx   d 7 3D 06 7D 0F FE 00 20
   1.163806 1  A5              Rx   d 8 00 06 B4 AF 7D DC 00 32
   1.164019 1  2B0             Rx   d 8 01 1E 3C 0A 28 00 00 00
   1.164275 1  77              Rx   d 8 45 01 74 64 00 00 00 00
   1.164403 1  600             Rx   d 2 00 00
   1.164574 1  414             Rx   d 3 F0 06 94
   1.164787 1  726             Rx   d 8 00 00 00 00 5B 00 00 00
   1.165043 1  727             Rx   d 8 00 00 FF 0F 00 00 00 00
   1.165299 1  728             Rx   d 8 00 00 00 00 00 00 00 00
   1.165513 1  729             Rx   d 8 7E 34 FF 0F FF 0F 00 00
   1.165769 1  655             Rx   d 8 02 04 55 56 65 45 02 00
   1.169950 1  610             Rx   d 7 ED D1 00 BC F3 FF 3A
   1.170675 1  350             Rx   d 8 00 60 00 10 00 80 1C EC
   1.172169 1  1A1             Rx   d 8 90 85 42 90 20 51 01 9C
